Number of measurement points: 480
Sample Rate (Hz): 10
Low limit Ch0 (V): -10
Upper limit Ch0 (V): 10
Low limit Ch1 (V): -10
Upper limit Ch1 (V): 10

Index	Time[s]	Ch0[V]	Ch1[V]
0	0	0.549921289784834	-0.0195079927798361
1	0.1	0.547344686696306	-0.0195079927798361
2	0.2	0.54219148051925	-0.0195079927798361
3	0.3	0.538326575886458	-0.0195079927798361
4	0.4	0.534461671253666	-0.0195079927798361
5	0.5	0.52930846507661	-0.0195079927798361
6	0.6	0.524155258899555	-0.0195079927798361
7	0.7	0.522866957355291	-0.0195079927798361
8	0.8	0.516425449633971	-0.0195079927798361
9	0.9	0.513848846545443	-0.0207962943241
10	1	0.509983941912651	-0.0207962943241
11	1.1	0.507407338824123	-0.0207962943241
12	1.2	0.502254132647067	-0.0207962943241
13	1.3	0.499677529558539	-0.0195079927798361
14	1.4	0.494524323381484	-0.0207962943241
15	1.5	0.490659418748692	-0.0195079927798361
16	1.6	0.488082815660164	-0.0195079927798361
17	1.7	0.484217911027372	-0.0195079927798361
18	1.8	0.481641307938844	-0.0195079927798361
19	1.9	0.475199800217524	-0.0207962943241
20	2	0.472623197128996	-0.0195079927798361
21	2.1	0.468758292496204	-0.0207962943241
22	2.2	0.46746999095194	-0.0195079927798361
23	2.3	0.462316784774885	-0.0207962943241
24	2.4	0.459740181686357	-0.0207962943241
25	2.5	0.454586975509301	-0.0207962943241
26	2.6	0.450722070876509	-0.0207962943241
27	2.7	0.450722070876509	-0.0195079927798361
28	2.8	0.446857166243717	-0.0207962943241
29	2.9	0.444280563155189	-0.0195079927798361
30	3	0.439127356978133	-0.0207962943241
31	3.1	0.435262452345341	-0.0195079927798361
32	3.2	0.432685849256814	-0.0195079927798361
33	3.3	0.428820944624022	-0.0207962943241
34	3.4	0.42495603999123	-0.0195079927798361
35	3.5	0.421091135358438	-0.0207962943241
36	3.6	0.417226230725646	-0.0195079927798361
37	3.7	0.413361326092854	-0.0195079927798361
38	3.8	0.409496421460062	-0.0195079927798361
39	3.9	0.406919818371534	-0.0195079927798361
40	4	0.403054913738742	-0.0195079927798361
41	4.1	0.401766612194479	-0.0195079927798361
42	4.2	0.395325104473159	-0.0207962943241
43	4.3	0.394036802928895	-0.0195079927798361
44	4.4	0.388883596751839	-0.0195079927798361
45	4.5	0.386306993663311	-0.0195079927798361
46	4.6	0.381153787486255	-0.0195079927798361
47	4.7	0.378577184397727	-0.0195079927798361
48	4.8	0.374712279764935	-0.0195079927798361
49	4.9	0.370847375132143	-0.0195079927798361
50	5	0.366982470499352	-0.0195079927798361
51	5.1	0.36311756586656	-0.0195079927798361
52	5.2	0.359252661233768	-0.0195079927798361
53	5.3	0.355387756600976	-0.0195079927798361
54	5.4	0.351522851968184	-0.0195079927798361
55	5.5	0.348946248879656	-0.0195079927798361
56	5.6	0.345081344246864	-0.0195079927798361
57	5.7	0.341216439614072	-0.0195079927798361
58	5.8	0.337351534981281	-0.0195079927798361
59	5.9	0.332198328804225	-0.0207962943241
60	6	0.330910027259961	-0.0195079927798361
61	6.1	0.324468519538641	-0.0207962943241
62	6.2	0.323180217994377	-0.0195079927798361
63	6.3	0.318027011817321	-0.0195079927798361
64	6.4	0.315450408728793	-0.0195079927798361
65	6.5	0.311585504096001	-0.0195079927798361
66	6.6	0.30772059946321	-0.0195079927798361
67	6.7	0.303855694830418	-0.0207962943241
68	6.8	0.30127909174189	-0.0195079927798361
69	6.9	0.296125885564834	-0.0195079927798361
70	7	0.29483758402057	-0.0195079927798361
71	7.1	0.289684377843514	-0.0207962943241
72	7.2	0.285819473210722	-0.0207962943241
73	7.3	0.28195456857793	-0.0207962943241
74	7.4	0.28195456857793	-0.0195079927798361
75	7.5	0.275513060856611	-0.0195079927798361
76	7.6	0.274224759312347	-0.0195079927798361
77	7.7	0.269071553135291	-0.0207962943241
78	7.8	0.266494950046763	-0.0195079927798361
79	7.9	0.262630045413971	-0.0195079927798361
80	8	0.261341743869707	-0.0195079927798361
81	8.1	0.256188537692651	-0.0207962943241
82	8.2	0.253611934604123	-0.0195079927798361
83	8.3	0.248458728427067	-0.0207962943241
84	8.4	0.245882125338539	-0.0195079927798361
85	8.5	0.242017220705748	-0.0207962943241
86	8.6	0.23944061761722	-0.0207962943241
87	8.7	0.235575712984428	-0.0195079927798361
88	8.8	0.231710808351636	-0.0195079927798361
89	8.9	0.230422506807372	-0.0207962943241
90	9	0.225269300630316	-0.0207962943241
91	9.1	0.222692697541788	-0.0207962943241
92	9.2	0.218827792908996	-0.0207962943241
93	9.3	0.214962888276204	-0.0207962943241
94	9.4	0.211097983643413	-0.0195079927798361
95	9.5	0.208521380554885	-0.0207962943241
96	9.6	0.207233079010621	-0.0207962943241
97	9.7	0.204656475922093	-0.0195079927798361
98	9.8	0.199503269745037	-0.0195079927798361
99	9.9	0.198214968200773	-0.0195079927798361
100	10	0.194350063567981	-0.0207962943241
101	10.1	0.190485158935189	-0.0207962943241
102	10.2	0.187908555846661	-0.0207962943241
103	10.3	0.184043651213869	-0.0207962943241
104	10.4	0.180178746581078	-0.0207962943241
105	10.5	0.176313841948286	-0.022084595868364
106	10.6	0.173737238859758	-0.0207962943241
107	10.7	0.169872334226966	-0.0207962943241
108	10.8	0.168584032682702	-0.0207962943241
109	10.9	0.162142524961382	-0.022084595868364
110	11	0.159565921872854	-0.022084595868364
111	11.1	0.155701017240062	-0.0207962943241
112	11.2	0.153124414151534	-0.0207962943241
113	11.3	0.149259509518743	-0.022084595868364
114	11.4	0.145394604885951	-0.022084595868364
115	11.5	0.142818001797423	-0.0207962943241
116	11.6	0.138953097164631	-0.0195079927798361
117	11.7	0.135088192531839	-0.0207962943241
118	11.8	0.135088192531839	-0.022084595868364
119	11.9	0.129934986354783	-0.0207962943241
120	12	0.127358383266255	-0.0195079927798361
121	12.1	0.122205177089199	-0.0207962943241
122	12.2	0.119628574000672	-0.0233728974126279
123	12.3	0.11576366936788	-0.0233728974126279
124	12.4	0.111898764735088	-0.022084595868364
125	12.5	0.110610463190824	-0.0233728974126279
126	12.6	0.106745558558032	-0.0259495005011559
127	12.7	0.104168955469504	-0.0259495005011559
128	12.8	0.0990157492924482	-0.0246611989568919
129	12.9	0.0977274477481842	-0.0233728974126279
130	13	0.0938625431153923	-0.0272378020454198
131	13.1	0.0899976384826005	-0.0298144051339477
132	13.2	0.0861327338498086	-0.0259495005011559
133	13.3	0.0809795276727527	-0.022084595868364
134	13.4	0.0796912261284888	-0.0233728974126279
135	13.5	0.0771146230399609	-0.0285261035896838
136	13.6	0.0745380199514329	-0.0298144051339477
137	13.7	0.0706731153186411	-0.0272378020454198
138	13.8	0.0693848137743771	-0.022084595868364
139	13.9	0.0655199091415852	-0.022084595868364
140	14	0.0642316075973213	-0.0311027066782117
141	14.1	0.0603667029645294	-0.0414091190323234
142	14.2	0.0590784014202654	-0.0375442143995315
143	14.3	0.0565017983317375	-0.0259495005011559
144	14.4	0.0526368936989456	-0.0246611989568919
145	14.5	0.0487719890661538	-0.0465623252093792
146	14.6	0.0461953859776258	-0.0671751499176025
147	14.7	0.0436187828890979	-0.0658868483733386
148	14.8	0.0397538782563061	-0.0426974205765873
149	14.9	0.0384655767120421	-0.0298144051339477
150	15	0.0358889736235142	-0.0504272298421711
151	15.1	0.0346006720792502	-0.0968060854356736
152	15.2	0.0320240689907223	-0.158644559560344
153	15.3	0.0307357674464583	-0.19987020897679
154	15.4	0.0294474659021944	-0.184410590445623
155	15.5	0.0281591643579304	-0.123860417865217
156	15.6	0.0242942597251385	-0.0452740236651152
157	15.7	0.0242942597251385	-0.197293605888262
158	15.8	0.0217176566366106	-0.574765958357602
159	15.9	0.0191410535480827	-1.40572045440786
160	16	0.0165644504595548	-2.00864557712339
161	16.1	0.0152761489152908	-2.9233396735508
162	16.2	0.0139878473710269	-4.01066617690958
163	16.3	0.0139878473710269	-4.85450368840247
164	16.4	0.011411244282499	-5.26289527793415
165	16.5	0.00883464119397104	-4.91891876561567
166	16.6	0.00754633964970708	-3.60485119046643
167	16.7	0.0036814350169152	-2.13747573154978
168	16.8	0.0036814350169152	-1.01150018186308
169	16.9	-0.00147177116014063	-0.39826864679344
170	17	-0.00276007270440459	-0.114842307055369
171	17.1	-0.00276007270440459	-0.0761932607274503
172	17.2	-0.00533667579293251	-0.0993826885242015
173	17.3	-0.00533667579293251	-0.190852098166943
174	17.4	-0.00791327888146043	-0.319682252593338
175	17.5	-0.00920158042572439	-0.32998866494745
176	17.6	-0.0117781835142523	-0.28747471398674
177	17.7	-0.0117781835142523	-0.203735113609582
178	17.8	-0.0143547866027802	-0.125148719409481
179	17.9	-0.0156430881470442	-0.0761932607274503
180	18	-0.0182196912355721	-0.0491389282979071
181	18.1	-0.0195079927798361	-0.0452740236651152
182	18.2	-0.0195079927798361	-0.051715531386435
183	18.3	-0.022084595868364	-0.0620219437405467
184	18.4	-0.0246611989568919	-0.0684634514618665
185	18.5	-0.022084595868364	-0.0813464669045061
186	18.6	-0.0246611989568919	-0.0929411808028817
187	18.7	-0.0259495005011559	-0.104535894701257
188	18.8	-0.0259495005011559	-0.101959291612729
189	18.9	-0.0272378020454198	-0.0929411808028817
190	19	-0.0298144051339477	-0.0787698638159782
191	19.1	-0.0298144051339477	-0.0633102452848107
192	19.2	-0.0323910082224756	-0.0439857221208513
193	19.3	-0.0323910082224756	-0.0285261035896838
194	19.4	-0.0349676113110036	-0.0272378020454198
195	19.5	-0.0362559128552675	-0.0388325159437954
196	19.6	-0.0401208174880594	-0.0581570391077548
197	19.7	-0.0401208174880594	-0.0749049591831863
198	19.8	-0.0426974205765873	-0.0800581653602421
199	19.9	-0.0426974205765873	-0.0736166576389223
200	20	-0.0452740236651152	-0.0645985468290746
201	20.1	-0.0452740236651152	-0.051715531386435
202	20.2	-0.0465623252093792	-0.0414091190323234
203	20.3	-0.0465623252093792	-0.0323910082224756
204	20.4	-0.0491389282979071	-0.0285261035896838
205	20.5	-0.0504272298421711	-0.0285261035896838
206	20.6	-0.051715531386435	-0.0362559128552675
207	20.7	-0.0542921344749629	-0.0426974205765873
208	20.8	-0.0555804360192269	-0.0478506267536432
209	20.9	-0.0581570391077548	-0.051715531386435
210	21	-0.0594453406520188	-0.0478506267536432
211	21.1	-0.0594453406520188	-0.0401208174880594
212	21.2	-0.0633102452848107	-0.0336793097667396
213	21.3	-0.0620219437405467	-0.0272378020454198
214	21.4	-0.0645985468290746	-0.0246611989568919
215	21.5	-0.0658868483733386	-0.0233728974126279
216	21.6	-0.0658868483733386	-0.0233728974126279
217	21.7	-0.0684634514618665	-0.0272378020454198
218	21.8	-0.0671751499176025	-0.0311027066782117
219	21.9	-0.0710400545503944	-0.0362559128552675
220	22	-0.0697517530061305	-0.0401208174880594
221	22.1	-0.0736166576389223	-0.0388325159437954
222	22.2	-0.0761932607274503	-0.0349676113110036
223	22.3	-0.0774815622717142	-0.0285261035896838
224	22.4	-0.0787698638159782	-0.0207962943241
225	22.5	-0.0800581653602421	-0.0207962943241
226	22.6	-0.0813464669045061	-0.022084595868364
227	22.7	-0.083923069993034	-0.0259495005011559
228	22.8	-0.083923069993034	-0.0272378020454198
229	22.9	-0.0864996730815619	-0.0311027066782117
230	23	-0.0864996730815619	-0.0323910082224756
231	23.1	-0.0890762761700898	-0.0336793097667396
232	23.2	-0.0890762761700898	-0.0298144051339477
233	23.3	-0.0929411808028817	-0.0259495005011559
234	23.4	-0.0929411808028817	-0.0207962943241
235	23.5	-0.0968060854356736	-0.0207962943241
236	23.6	-0.0968060854356736	-0.0233728974126279
237	23.7	-0.0993826885242015	-0.0259495005011559
238	23.8	-0.101959291612729	-0.0298144051339477
239	23.9	-0.101959291612729	-0.0285261035896838
240	24	-0.104535894701257	-0.0285261035896838
241	24.1	-0.107112497789785	-0.0259495005011559
242	24.2	-0.107112497789785	-0.0233728974126279
243	24.3	-0.108400799334049	-0.0207962943241
244	24.4	-0.110977402422577	-0.0195079927798361
245	24.5	-0.113554005511105	-0.022084595868364
246	24.6	-0.114842307055369	-0.0259495005011559
247	24.7	-0.114842307055369	-0.0259495005011559
248	24.8	-0.117418910143897	-0.0272378020454198
249	24.9	-0.117418910143897	-0.0259495005011559
250	25	-0.119995513232425	-0.022084595868364
251	25.1	-0.121283814776689	-0.0207962943241
252	25.2	-0.122572116320953	-0.0207962943241
253	25.3	-0.123860417865217	-0.022084595868364
254	25.4	-0.125148719409481	-0.0246611989568919
255	25.5	-0.130301925586537	-0.0259495005011559
256	25.6	-0.130301925586537	-0.0272378020454198
257	25.7	-0.132878528675064	-0.0233728974126279
258	25.8	-0.135455131763592	-0.0195079927798361
259	25.9	-0.136743433307856	-0.0195079927798361
260	26	-0.139320036396384	-0.022084595868364
261	26.1	-0.141896639484912	-0.0233728974126279
262	26.2	-0.145761544117704	-0.0246611989568919
263	26.3	-0.145761544117704	-0.0233728974126279
264	26.4	-0.148338147206232	-0.022084595868364
265	26.5	-0.149626448750496	-0.0195079927798361
266	26.6	-0.152203051839024	-0.0207962943241
267	26.7	-0.153491353383288	-0.0207962943241
268	26.8	-0.15735625801608	-0.0233728974126279
269	26.9	-0.15735625801608	-0.0246611989568919
270	27	-0.161221162648872	-0.0259495005011559
271	27.1	-0.161221162648872	-0.022084595868364
272	27.2	-0.165086067281663	-0.0207962943241
273	27.3	-0.166374368825927	-0.0195079927798361
274	27.4	-0.167662670370191	-0.0195079927798361
275	27.5	-0.168950971914455	-0.022084595868364
276	27.6	-0.171527575002983	-0.022084595868364
277	27.7	-0.172815876547247	-0.0233728974126279
278	27.8	-0.174104178091511	-0.0233728974126279
279	27.9	-0.176680781180039	-0.0233728974126279
280	28	-0.176680781180039	-0.0207962943241
281	28.1	-0.180545685812831	-0.0207962943241
282	28.2	-0.180545685812831	-0.0207962943241
283	28.3	-0.181833987357095	-0.0195079927798361
284	28.4	-0.183122288901359	-0.0207962943241
285	28.5	-0.183122288901359	-0.0207962943241
286	28.6	-0.185698891989887	-0.0233728974126279
287	28.7	-0.189563796622679	-0.0233728974126279
288	28.8	-0.192140399711207	-0.022084595868364
289	28.9	-0.194717002799734	-0.0207962943241
290	29	-0.196005304343998	-0.0207962943241
291	29.1	-0.198581907432526	-0.0207962943241
292	29.2	-0.202446812065318	-0.022084595868364
293	29.3	-0.202446812065318	-0.0233728974126279
294	29.4	-0.203735113609582	-0.0233728974126279
295	29.5	-0.205023415153846	-0.0246611989568919
296	29.6	-0.205023415153846	-0.0233728974126279
297	29.7	-0.207600018242374	-0.022084595868364
298	29.8	-0.208888319786638	-0.0207962943241
299	29.9	-0.21275322441943	-0.0207962943241
300	30	-0.214041525963694	-0.0207962943241
301	30.1	-0.21919473214075	-0.0233728974126279
302	30.2	-0.21919473214075	-0.022084595868364
303	30.3	-0.221771335229278	-0.0233728974126279
304	30.4	-0.221771335229278	-0.0207962943241
305	30.5	-0.225636239862069	-0.0207962943241
306	30.6	-0.225636239862069	-0.0207962943241
307	30.7	-0.228212842950597	-0.022084595868364
308	30.8	-0.228212842950597	-0.022084595868364
309	30.9	-0.233366049127653	-0.0233728974126279
310	31	-0.233366049127653	-0.022084595868364
311	31.1	-0.235942652216181	-0.0207962943241
312	31.2	-0.237230953760445	-0.0207962943241
313	31.3	-0.239807556848973	-0.0207962943241
314	31.4	-0.241095858393237	-0.022084595868364
315	31.5	-0.244960763026029	-0.0233728974126279
316	31.6	-0.244960763026029	-0.0233728974126279
317	31.7	-0.248825667658821	-0.0233728974126279
318	31.8	-0.248825667658821	-0.022084595868364
319	31.9	-0.251402270747349	-0.022084595868364
320	32	-0.251402270747349	-0.0207962943241
321	32.1	-0.255267175380141	-0.0207962943241
322	32.2	-0.255267175380141	-0.0207962943241
323	32.3	-0.259132080012932	-0.022084595868364
324	32.4	-0.26170868310146	-0.022084595868364
325	32.5	-0.264285286189988	-0.0233728974126279
326	32.6	-0.265573587734252	-0.022084595868364
327	32.7	-0.266861889278516	-0.0207962943241
328	32.8	-0.269438492367044	-0.0207962943241
329	32.9	-0.269438492367044	-0.0207962943241
330	33	-0.2745916985441	-0.022084595868364
331	33.1	-0.2745916985441	-0.022084595868364
332	33.2	-0.278456603176892	-0.022084595868364
333	33.3	-0.279744904721156	-0.0207962943241
334	33.4	-0.283609809353948	-0.0207962943241
335	33.5	-0.284898110898212	-0.0207962943241
336	33.6	-0.28747471398674	-0.0207962943241
337	33.7	-0.288763015531003	-0.022084595868364
338	33.8	-0.290051317075267	-0.0233728974126279
339	33.9	-0.291339618619531	-0.022084595868364
340	34	-0.292627920163795	-0.0233728974126279
341	34.1	-0.295204523252323	-0.0233728974126279
342	34.2	-0.296492824796587	-0.0207962943241
343	34.3	-0.297781126340851	-0.0207962943241
344	34.4	-0.302934332517907	-0.022084595868364
345	34.5	-0.304222634062171	-0.0233728974126279
346	34.6	-0.308087538694963	-0.0233728974126279
347	34.7	-0.309375840239227	-0.0233728974126279
348	34.8	-0.309375840239227	-0.0207962943241
349	34.9	-0.314529046416283	-0.0207962943241
350	35	-0.315817347960547	-0.0207962943241
351	35.1	-0.318393951049075	-0.022084595868364
352	35.2	-0.319682252593338	-0.0233728974126279
353	35.3	-0.322258855681866	-0.0233728974126279
354	35.4	-0.324835458770394	-0.022084595868364
355	35.5	-0.326123760314658	-0.0207962943241
356	35.6	-0.328700363403186	-0.022084595868364
357	35.7	-0.32998866494745	-0.022084595868364
358	35.8	-0.331276966491714	-0.022084595868364
359	35.9	-0.333853569580242	-0.022084595868364
360	36	-0.332565268035978	-0.0233728974126279
361	36.1	-0.335141871124506	-0.022084595868364
362	36.2	-0.335141871124506	-0.022084595868364
363	36.3	-0.339006775757298	-0.0207962943241
364	36.4	-0.340295077301562	-0.0207962943241
365	36.5	-0.345448283478618	-0.022084595868364
366	36.6	-0.346736585022882	-0.022084595868364
367	36.7	-0.348024886567146	-0.0233728974126279
368	36.8	-0.34931318811141	-0.0233728974126279
369	36.9	-0.351889791199937	-0.022084595868364
370	37	-0.354466394288465	-0.022084595868364
371	37.1	-0.354466394288465	-0.0207962943241
372	37.2	-0.357042997376993	-0.0207962943241
373	37.3	-0.357042997376993	-0.0207962943241
374	37.4	-0.360907902009785	-0.022084595868364
375	37.5	-0.363484505098313	-0.022084595868364
376	37.6	-0.364772806642577	-0.0207962943241
377	37.7	-0.367349409731105	-0.022084595868364
378	37.8	-0.368637711275369	-0.0207962943241
379	37.9	-0.371214314363897	-0.0207962943241
380	38	-0.373790917452425	-0.0207962943241
381	38.1	-0.375079218996689	-0.0207962943241
382	38.2	-0.376367520540953	-0.0207962943241
383	38.3	-0.377655822085217	-0.0207962943241
384	38.4	-0.378944123629481	-0.022084595868364
385	38.5	-0.381520726718009	-0.0207962943241
386	38.6	-0.384097329806536	-0.0207962943241
387	38.7	-0.3853856313508	-0.0207962943241
388	38.8	-0.387962234439328	-0.0207962943241
389	38.9	-0.389250535983592	-0.022084595868364
390	39	-0.390538837527856	-0.022084595868364
391	39.1	-0.393115440616384	-0.022084595868364
392	39.2	-0.394403742160648	-0.0207962943241
393	39.3	-0.39826864679344	-0.0207962943241
394	39.4	-0.396980345249176	-0.0207962943241
395	39.5	-0.400845249881968	-0.0207962943241
396	39.6	-0.402133551426232	-0.022084595868364
397	39.7	-0.40471015451476	-0.022084595868364
398	39.8	-0.405998456059024	-0.022084595868364
399	39.9	-0.408575059147552	-0.022084595868364
400	40	-0.409863360691816	-0.022084595868364
401	40.1	-0.409863360691816	-0.022084595868364
402	40.2	-0.413728265324607	-0.022084595868364
403	40.3	-0.415016566868871	-0.022084595868364
404	40.4	-0.415016566868871	-0.0207962943241
405	40.5	-0.417593169957399	-0.0207962943241
406	40.6	-0.417593169957399	-0.022084595868364
407	40.7	-0.421458074590191	-0.022084595868364
408	40.8	-0.422746376134455	-0.022084595868364
409	40.9	-0.426611280767247	-0.022084595868364
410	41	-0.427899582311511	-0.0207962943241
411	41.1	-0.431764486944303	-0.0207962943241
412	41.2	-0.431764486944303	-0.0207962943241
413	41.3	-0.438205994665623	-0.022084595868364
414	41.4	-0.436917693121359	-0.0207962943241
415	41.5	-0.439494296209887	-0.022084595868364
416	41.6	-0.439494296209887	-0.022084595868364
417	41.7	-0.444647502386943	-0.022084595868364
418	41.8	-0.444647502386943	-0.0207962943241
419	41.9	-0.44722410547547	-0.022084595868364
420	42	-0.448512407019734	-0.0207962943241
421	42.1	-0.451089010108262	-0.022084595868364
422	42.2	-0.45366561319679	-0.022084595868364
423	42.3	-0.456242216285318	-0.022084595868364
424	42.4	-0.456242216285318	-0.0207962943241
425	42.5	-0.46010712091811	-0.022084595868364
426	42.6	-0.458818819373846	-0.0207962943241
427	42.7	-0.465260327095166	-0.0207962943241
428	42.8	-0.46654862863943	-0.0207962943241
429	42.9	-0.469125231727958	-0.0207962943241
430	43	-0.470413533272222	-0.0207962943241
