Number of measurement points: 3239
Sample Rate (Hz): 10
Low limit Ch0 (V): -10
Upper limit Ch0 (V): 10
Low limit Ch1 (V): -10
Upper limit Ch1 (V): 10

Index	Time[s]	Ch0[V]	Ch1[V]
0	0	-0.0710400545503944	-0.815678347134963
1	0.1	-0.0195079927798361	-0.816966648679227
2	0.2	-0.0207962943241	-0.815678347134963
3	0.3	-0.0207962943241	-0.816966648679227
4	0.4	-0.0195079927798361	-0.815678347134963
5	0.5	-0.0195079927798361	-0.815678347134963
6	0.6	-0.0195079927798361	-0.815678347134963
7	0.7	-0.022084595868364	-0.816966648679227
8	0.8	-0.0207962943241	-0.816966648679227
9	0.9	-0.0207962943241	-0.815678347134963
10	1	-0.0195079927798361	-0.816966648679227
11	1.1	-0.0195079927798361	-0.815678347134963
12	1.2	-0.0195079927798361	-0.815678347134963
13	1.3	-0.0207962943241	-0.816966648679227
14	1.4	-0.0207962943241	-0.815678347134963
15	1.5	-0.0207962943241	-0.816966648679227
16	1.6	-0.0207962943241	-0.816966648679227
17	1.7	-0.0207962943241	-0.815678347134963
18	1.8	-0.0195079927798361	-0.815678347134963
19	1.9	-0.0207962943241	-0.816966648679227
20	2	-0.0207962943241	-0.815678347134963
21	2.1	-0.0207962943241	-0.815678347134963
22	2.2	-0.0195079927798361	-0.816966648679227
23	2.3	-0.0195079927798361	-0.816966648679227
24	2.4	-0.0182196912355721	-0.815678347134963
25	2.5	-0.0195079927798361	-0.815678347134963
26	2.6	-0.0195079927798361	-0.814390045590699
27	2.7	-0.0207962943241	-0.814390045590699
28	2.8	-0.0207962943241	-0.813101744046435
29	2.9	-0.0195079927798361	-0.811813442502171
30	3	-0.0207962943241	-0.813101744046435
31	3.1	-0.0195079927798361	-0.813101744046435
32	3.2	-0.0195079927798361	-0.811813442502171
33	3.3	-0.0207962943241	-0.811813442502171
34	3.4	-0.0207962943241	-0.810525140957907
35	3.5	-0.0195079927798361	-0.810525140957907
36	3.6	-0.0207962943241	-0.809236839413643
37	3.7	-0.0207962943241	-0.809236839413643
38	3.8	-0.0207962943241	-0.809236839413643
39	3.9	-0.0207962943241	-0.807948537869379
40	4	-0.0195079927798361	-0.806660236325115
41	4.1	-0.0207962943241	-0.806660236325115
42	4.2	-0.022084595868364	-0.805371934780851
43	4.3	-0.022084595868364	-0.806660236325115
44	4.4	-0.022084595868364	-0.805371934780851
45	4.5	-0.0233728974126279	-0.804083633236587
46	4.6	-0.022084595868364	-0.804083633236587
47	4.7	-0.0233728974126279	-0.802795331692323
48	4.8	-0.022084595868364	-0.802795331692323
49	4.9	-0.022084595868364	-0.802795331692323
50	5	-0.022084595868364	-0.802795331692323
51	5.1	-0.0207962943241	-0.802795331692323
52	5.2	-0.0207962943241	-0.801507030148059
53	5.3	-0.0207962943241	-0.801507030148059
54	5.4	-0.022084595868364	-0.801507030148059
55	5.5	-0.022084595868364	-0.801507030148059
56	5.6	-0.022084595868364	-0.800218728603795
57	5.7	-0.022084595868364	-0.801507030148059
58	5.8	-0.0207962943241	-0.801507030148059
59	5.9	-0.0207962943241	-0.800218728603795
60	6	-0.0207962943241	-0.800218728603795
61	6.1	-0.0207962943241	-0.798930427059531
62	6.2	-0.0195079927798361	-0.800218728603795
63	6.3	-0.022084595868364	-0.798930427059531
64	6.4	-0.022084595868364	-0.798930427059531
65	6.5	-0.0195079927798361	-0.797642125515267
66	6.6	-0.0195079927798361	-0.797642125515267
67	6.7	-0.0207962943241	-0.796353823971003
68	6.8	-0.0195079927798361	-0.796353823971003
69	6.9	-0.0207962943241	-0.796353823971003
70	7	-0.0207962943241	-0.796353823971003
71	7.1	-0.0195079927798361	-0.795065522426739
72	7.2	-0.0207962943241	-0.795065522426739
73	7.3	-0.0195079927798361	-0.796353823971003
74	7.4	-0.0207962943241	-0.795065522426739
75	7.5	-0.0195079927798361	-0.793777220882475
76	7.6	-0.0207962943241	-0.793777220882475
77	7.7	-0.0207962943241	-0.793777220882475
78	7.8	-0.0195079927798361	-0.793777220882475
79	7.9	-0.0195079927798361	-0.792488919338211
80	8	-0.0195079927798361	-0.792488919338211
81	8.1	-0.0182196912355721	-0.793777220882475
82	8.2	-0.0207962943241	-0.792488919338211
83	8.3	-0.0195079927798361	-0.791200617793947
84	8.4	-0.0195079927798361	-0.791200617793947
85	8.5	-0.0207962943241	-0.791200617793947
86	8.6	-0.0207962943241	-0.791200617793947
87	8.7	-0.0195079927798361	-0.789912316249683
88	8.8	-0.0195079927798361	-0.789912316249683
89	8.9	-0.0195079927798361	-0.789912316249683
90	9	-0.0195079927798361	-0.789912316249683
91	9.1	-0.0195079927798361	-0.78862401470542
92	9.2	-0.0207962943241	-0.78862401470542
93	9.3	-0.0207962943241	-0.78862401470542
94	9.4	-0.0195079927798361	-0.78862401470542
95	9.5	-0.0195079927798361	-0.78862401470542
96	9.6	-0.0195079927798361	-0.78862401470542
97	9.7	-0.0195079927798361	-0.787335713161156
98	9.8	-0.0195079927798361	-0.787335713161156
99	9.9	-0.0195079927798361	-0.787335713161156
100	10	-0.0195079927798361	-0.787335713161156
101	10.1	-0.0207962943241	-0.787335713161156
102	10.2	-0.0195079927798361	-0.786047411616892
103	10.3	-0.0195079927798361	-0.786047411616892
104	10.4	-0.0195079927798361	-0.786047411616892
105	10.5	-0.0195079927798361	-0.786047411616892
106	10.6	-0.0207962943241	-0.786047411616892
107	10.7	-0.0195079927798361	-0.786047411616892
108	10.8	-0.0195079927798361	-0.784759110072628
109	10.9	-0.0182196912355721	-0.784759110072628
110	11	-0.0195079927798361	-0.784759110072628
111	11.1	-0.0195079927798361	-0.784759110072628
112	11.2	-0.0182196912355721	-0.784759110072628
113	11.3	-0.0195079927798361	-0.783470808528364
114	11.4	-0.0207962943241	-0.784759110072628
115	11.5	-0.0207962943241	-0.783470808528364
116	11.6	-0.0207962943241	-0.783470808528364
117	11.7	-0.0195079927798361	-0.7821825069841
118	11.8	-0.0195079927798361	-0.7821825069841
119	11.9	-0.0195079927798361	-0.780894205439836
120	12	-0.0195079927798361	-0.780894205439836
121	12.1	-0.0207962943241	-0.780894205439836
122	12.2	-0.022084595868364	-0.779605903895572
123	12.3	-0.022084595868364	-0.779605903895572
124	12.4	-0.0207962943241	-0.778317602351308
125	12.5	-0.022084595868364	-0.779605903895572
126	12.6	-0.0233728974126279	-0.778317602351308
127	12.7	-0.0233728974126279	-0.778317602351308
128	12.8	-0.022084595868364	-0.778317602351308
129	12.9	-0.022084595868364	-0.778317602351308
130	13	-0.022084595868364	-0.778317602351308
131	13.1	-0.0207962943241	-0.778317602351308
132	13.2	-0.022084595868364	-0.777029300807044
133	13.3	-0.022084595868364	-0.777029300807044
134	13.4	-0.0207962943241	-0.777029300807044
135	13.5	-0.022084595868364	-0.778317602351308
136	13.6	-0.022084595868364	-0.777029300807044
137	13.7	-0.022084595868364	-0.777029300807044
138	13.8	-0.022084595868364	-0.777029300807044
139	13.9	-0.022084595868364	-0.777029300807044
140	14	-0.022084595868364	-0.777029300807044
141	14.1	-0.0207962943241	-0.777029300807044
142	14.2	-0.0207962943241	-0.777029300807044
143	14.3	-0.0207962943241	-0.77574099926278
144	14.4	-0.0207962943241	-0.77574099926278
145	14.5	-0.0207962943241	-0.77574099926278
146	14.6	-0.0207962943241	-0.77574099926278
147	14.7	-0.0207962943241	-0.774452697718516
148	14.8	-0.0195079927798361	-0.774452697718516
149	14.9	-0.0207962943241	-0.774452697718516
150	15	-0.0207962943241	-0.774452697718516
151	15.1	-0.0207962943241	-0.774452697718516
152	15.2	-0.0207962943241	-0.774452697718516
153	15.3	-0.0207962943241	-0.773164396174252
154	15.4	-0.0207962943241	-0.773164396174252
155	15.5	-0.0207962943241	-0.773164396174252
156	15.6	-0.0207962943241	-0.773164396174252
157	15.7	-0.0207962943241	-0.773164396174252
158	15.8	-0.0207962943241	-0.771876094629988
159	15.9	-0.0195079927798361	-0.773164396174252
160	16	-0.0207962943241	-0.773164396174252
161	16.1	-0.0207962943241	-0.773164396174252
162	16.2	-0.0207962943241	-0.771876094629988
163	16.3	-0.0207962943241	-0.771876094629988
164	16.4	-0.0207962943241	-0.771876094629988
165	16.5	-0.0207962943241	-0.771876094629988
166	16.6	-0.0207962943241	-0.771876094629988
167	16.7	-0.0207962943241	-0.771876094629988
168	16.8	-0.0207962943241	-0.770587793085724
169	16.9	-0.0207962943241	-0.770587793085724
170	17	-0.0207962943241	-0.770587793085724
171	17.1	-0.0207962943241	-0.770587793085724
172	17.2	-0.0207962943241	-0.770587793085724
173	17.3	-0.0195079927798361	-0.76929949154146
174	17.4	-0.0195079927798361	-0.76929949154146
175	17.5	-0.0207962943241	-0.768011189997196
176	17.6	-0.0195079927798361	-0.768011189997196
177	17.7	-0.0195079927798361	-0.768011189997196
178	17.8	-0.0195079927798361	-0.766722888452932
179	17.9	-0.0207962943241	-0.766722888452932
180	18	-0.0207962943241	-0.765434586908668
181	18.1	-0.0207962943241	-0.765434586908668
182	18.2	-0.0207962943241	-0.765434586908668
183	18.3	-0.0195079927798361	-0.765434586908668
184	18.4	-0.0195079927798361	-0.764146285364404
185	18.5	-0.0195079927798361	-0.76285798382014
186	18.6	-0.0195079927798361	-0.761569682275876
187	18.7	-0.0207962943241	-0.760281380731612
188	18.8	-0.0207962943241	-0.758993079187348
189	18.9	-0.0207962943241	-0.758993079187348
190	19	-0.0207962943241	-0.758993079187348
191	19.1	-0.0207962943241	-0.758993079187348
192	19.2	-0.022084595868364	-0.757704777643085
193	19.3	-0.022084595868364	-0.756416476098821
194	19.4	-0.0207962943241	-0.756416476098821
195	19.5	-0.0233728974126279	-0.755128174554557
196	19.6	-0.022084595868364	-0.755128174554557
197	19.7	-0.022084595868364	-0.755128174554557
198	19.8	-0.022084595868364	-0.753839873010293
199	19.9	-0.022084595868364	-0.753839873010293
200	20	-0.0207962943241	-0.753839873010293
201	20.1	-0.0207962943241	-0.752551571466029
202	20.2	-0.0207962943241	-0.752551571466029
203	20.3	-0.0195079927798361	-0.752551571466029
204	20.4	-0.0195079927798361	-0.751263269921765
205	20.5	-0.0195079927798361	-0.749974968377501
206	20.6	-0.0207962943241	-0.748686666833237
207	20.7	-0.0207962943241	-0.748686666833237
208	20.8	-0.0207962943241	-0.749974968377501
209	20.9	-0.0195079927798361	-0.748686666833237
210	21	-0.0195079927798361	-0.748686666833237
211	21.1	-0.0195079927798361	-0.746110063744709
212	21.2	-0.0182196912355721	-0.746110063744709
213	21.3	-0.0182196912355721	-0.744821762200445
214	21.4	-0.0195079927798361	-0.744821762200445
215	21.5	-0.0182196912355721	-0.743533460656181
216	21.6	-0.0195079927798361	-0.743533460656181
217	21.7	-0.0195079927798361	-0.743533460656181
218	21.8	-0.0195079927798361	-0.742245159111917
219	21.9	-0.0182196912355721	-0.742245159111917
220	22	-0.0182196912355721	-0.742245159111917
221	22.1	-0.0195079927798361	-0.740956857567653
222	22.2	-0.0195079927798361	-0.740956857567653
223	22.3	-0.0182196912355721	-0.739668556023389
224	22.4	-0.0195079927798361	-0.739668556023389
225	22.5	-0.0207962943241	-0.738380254479125
226	22.6	-0.0207962943241	-0.738380254479125
227	22.7	-0.0207962943241	-0.738380254479125
228	22.8	-0.0207962943241	-0.738380254479125
229	22.9	-0.0207962943241	-0.737091952934861
230	23	-0.0207962943241	-0.737091952934861
231	23.1	-0.022084595868364	-0.735803651390597
232	23.2	-0.0233728974126279	-0.734515349846333
233	23.3	-0.0233728974126279	-0.735803651390597
234	23.4	-0.0246611989568919	-0.734515349846333
235	23.5	-0.0246611989568919	-0.734515349846333
236	23.6	-0.0246611989568919	-0.734515349846333
237	23.7	-0.0246611989568919	-0.733227048302069
238	23.8	-0.0233728974126279	-0.731938746757805
239	23.9	-0.0233728974126279	-0.731938746757805
240	24	-0.0246611989568919	-0.731938746757805
241	24.1	-0.0233728974126279	-0.730650445213541
242	24.2	-0.022084595868364	-0.730650445213541
243	24.3	-0.022084595868364	-0.729362143669277
244	24.4	-0.022084595868364	-0.729362143669277
245	24.5	-0.0207962943241	-0.728073842125013
246	24.6	-0.0195079927798361	-0.72678554058075
247	24.7	-0.022084595868364	-0.728073842125013
248	24.8	-0.022084595868364	-0.72678554058075
249	24.9	-0.0207962943241	-0.728073842125013
250	25	-0.0207962943241	-0.72678554058075
251	25.1	-0.0195079927798361	-0.725497239036486
252	25.2	-0.0195079927798361	-0.725497239036486
253	25.3	-0.022084595868364	-0.725497239036486
254	25.4	-0.0207962943241	-0.725497239036486
255	25.5	-0.0195079927798361	-0.724208937492222
256	25.6	-0.0195079927798361	-0.725497239036486
257	25.7	-0.0195079927798361	-0.722920635947958
258	25.8	-0.0195079927798361	-0.722920635947958
259	25.9	-0.0195079927798361	-0.721632334403694
260	26	-0.0195079927798361	-0.721632334403694
261	26.1	-0.0182196912355721	-0.72034403285943
262	26.2	-0.0182196912355721	-0.72034403285943
263	26.3	-0.0195079927798361	-0.72034403285943
264	26.4	-0.0195079927798361	-0.719055731315166
265	26.5	-0.0195079927798361	-0.719055731315166
266	26.6	-0.0182196912355721	-0.719055731315166
267	26.7	-0.0182196912355721	-0.717767429770902
268	26.8	-0.0182196912355721	-0.717767429770902
269	26.9	-0.0195079927798361	-0.716479128226638
270	27	-0.0207962943241	-0.716479128226638
271	27.1	-0.0207962943241	-0.716479128226638
272	27.2	-0.0207962943241	-0.715190826682374
273	27.3	-0.0207962943241	-0.716479128226638
274	27.4	-0.0207962943241	-0.715190826682374
275	27.5	-0.0207962943241	-0.715190826682374
276	27.6	-0.0207962943241	-0.715190826682374
277	27.7	-0.0207962943241	-0.715190826682374
278	27.8	-0.0207962943241	-0.715190826682374
279	27.9	-0.0207962943241	-0.715190826682374
280	28	-0.0207962943241	-0.71390252513811
281	28.1	-0.0195079927798361	-0.71390252513811
282	28.2	-0.0207962943241	-0.71390252513811
283	28.3	-0.0207962943241	-0.71390252513811
284	28.4	-0.022084595868364	-0.71390252513811
285	28.5	-0.022084595868364	-0.71390252513811
286	28.6	-0.022084595868364	-0.712614223593846
287	28.7	-0.0233728974126279	-0.711325922049582
288	28.8	-0.0246611989568919	-0.710037620505318
289	28.9	-0.0233728974126279	-0.710037620505318
290	29	-0.022084595868364	-0.708749318961054
291	29.1	-0.022084595868364	-0.708749318961054
292	29.2	-0.0233728974126279	-0.708749318961054
293	29.3	-0.022084595868364	-0.70746101741679
294	29.4	-0.022084595868364	-0.70746101741679
295	29.5	-0.0207962943241	-0.70746101741679
296	29.6	-0.0195079927798361	-0.70746101741679
297	29.7	-0.022084595868364	-0.706172715872526
298	29.8	-0.022084595868364	-0.706172715872526
299	29.9	-0.0207962943241	-0.706172715872526
300	30	-0.0207962943241	-0.704884414328262
301	30.1	-0.0207962943241	-0.703596112783998
302	30.2	-0.0195079927798361	-0.703596112783998
303	30.3	-0.0207962943241	-0.703596112783998
304	30.4	-0.0195079927798361	-0.703596112783998
305	30.5	-0.0207962943241	-0.703596112783998
306	30.6	-0.0207962943241	-0.703596112783998
307	30.7	-0.0207962943241	-0.702307811239734
308	30.8	-0.0195079927798361	-0.702307811239734
309	30.9	-0.0195079927798361	-0.702307811239734
310	31	-0.0195079927798361	-0.70101950969547
311	31.1	-0.0195079927798361	-0.70101950969547
312	31.2	-0.0207962943241	-0.70101950969547
313	31.3	-0.0207962943241	-0.699731208151206
314	31.4	-0.0182196912355721	-0.699731208151206
315	31.5	-0.0195079927798361	-0.698442906606942
316	31.6	-0.0182196912355721	-0.697154605062678
317	31.7	-0.022084595868364	-0.697154605062678
318	31.8	-0.0207962943241	-0.695866303518414
319	31.9	-0.0195079927798361	-0.695866303518414
320	32	-0.0207962943241	-0.694578001974151
321	32.1	-0.0207962943241	-0.694578001974151
322	32.2	-0.0207962943241	-0.693289700429887
323	32.3	-0.0207962943241	-0.693289700429887
324	32.4	-0.0207962943241	-0.693289700429887
325	32.5	-0.0207962943241	-0.693289700429887
326	32.6	-0.0207962943241	-0.693289700429887
327	32.7	-0.0207962943241	-0.693289700429887
328	32.8	-0.022084595868364	-0.693289700429887
329	32.9	-0.0207962943241	-0.692001398885623
330	33	-0.0207962943241	-0.692001398885623
331	33.1	-0.0207962943241	-0.692001398885623
332	33.2	-0.0195079927798361	-0.692001398885623
333	33.3	-0.0207962943241	-0.690713097341359
334	33.4	-0.0207962943241	-0.692001398885623
335	33.5	-0.022084595868364	-0.690713097341359
336	33.6	-0.022084595868364	-0.690713097341359
337	33.7	-0.022084595868364	-0.690713097341359
338	33.8	-0.022084595868364	-0.690713097341359
339	33.9	-0.022084595868364	-0.690713097341359
340	34	-0.022084595868364	-0.689424795797095
341	34.1	-0.022084595868364	-0.689424795797095
342	34.2	-0.022084595868364	-0.689424795797095
343	34.3	-0.022084595868364	-0.688136494252831
344	34.4	-0.0233728974126279	-0.686848192708567
345	34.5	-0.0233728974126279	-0.686848192708567
346	34.6	-0.0233728974126279	-0.685559891164303
347	34.7	-0.0207962943241	-0.684271589620039
348	34.8	-0.0195079927798361	-0.684271589620039
349	34.9	-0.0207962943241	-0.684271589620039
350	35	-0.0207962943241	-0.682983288075775
351	35.1	-0.0207962943241	-0.682983288075775
352	35.2	-0.0195079927798361	-0.681694986531511
353	35.3	-0.0195079927798361	-0.681694986531511
354	35.4	-0.0207962943241	-0.681694986531511
355	35.5	-0.0207962943241	-0.681694986531511
356	35.6	-0.0195079927798361	-0.681694986531511
357	35.7	-0.0207962943241	-0.680406684987247
358	35.8	-0.0207962943241	-0.680406684987247
359	35.9	-0.0207962943241	-0.680406684987247
360	36	-0.0207962943241	-0.680406684987247
361	36.1	-0.0195079927798361	-0.679118383442983
362	36.2	-0.0195079927798361	-0.680406684987247
363	36.3	-0.0207962943241	-0.680406684987247
364	36.4	-0.0207962943241	-0.679118383442983
365	36.5	-0.0195079927798361	-0.679118383442983
366	36.6	-0.0207962943241	-0.679118383442983
367	36.7	-0.0207962943241	-0.677830081898719
368	36.8	-0.0195079927798361	-0.679118383442983
369	36.9	-0.0207962943241	-0.677830081898719
370	37	-0.0207962943241	-0.677830081898719
371	37.1	-0.0195079927798361	-0.677830081898719
372	37.2	-0.0207962943241	-0.677830081898719
373	37.3	-0.0207962943241	-0.677830081898719
374	37.4	-0.0207962943241	-0.677830081898719
375	37.5	-0.0207962943241	-0.676541780354455
376	37.6	-0.0207962943241	-0.676541780354455
377	37.7	-0.0195079927798361	-0.675253478810191
378	37.8	-0.0207962943241	-0.675253478810191
379	37.9	-0.0207962943241	-0.672676875721663
380	38	-0.0195079927798361	-0.672676875721663
381	38.1	-0.022084595868364	-0.671388574177399
382	38.2	-0.0207962943241	-0.671388574177399
383	38.3	-0.022084595868364	-0.671388574177399
384	38.4	-0.022084595868364	-0.671388574177399
385	38.5	-0.0207962943241	-0.670100272633135
386	38.6	-0.0207962943241	-0.668811971088871
387	38.7	-0.022084595868364	-0.668811971088871
388	38.8	-0.0233728974126279	-0.667523669544607
389	38.9	-0.0246611989568919	-0.667523669544607
390	39	-0.0259495005011559	-0.666235368000343
391	39.1	-0.0259495005011559	-0.666235368000343
392	39.2	-0.0259495005011559	-0.666235368000343
393	39.3	-0.0259495005011559	-0.666235368000343
394	39.4	-0.0246611989568919	-0.666235368000343
395	39.5	-0.0259495005011559	-0.666235368000343
396	39.6	-0.0246611989568919	-0.666235368000343
397	39.7	-0.0246611989568919	-0.664947066456079
398	39.8	-0.0272378020454198	-0.664947066456079
399	39.9	-0.0272378020454198	-0.663658764911816
400	40	-0.0272378020454198	-0.663658764911816
401	40.1	-0.0259495005011559	-0.663658764911816
402	40.2	-0.0272378020454198	-0.662370463367552
403	40.3	-0.0259495005011559	-0.662370463367552
404	40.4	-0.0246611989568919	-0.661082161823288
405	40.5	-0.0246611989568919	-0.659793860279024
406	40.6	-0.0233728974126279	-0.659793860279024
407	40.7	-0.0233728974126279	-0.659793860279024
408	40.8	-0.022084595868364	-0.65850555873476
409	40.9	-0.0207962943241	-0.657217257190496
410	41	-0.022084595868364	-0.657217257190496
411	41.1	-0.0207962943241	-0.657217257190496
412	41.2	-0.0207962943241	-0.655928955646232
413	41.3	-0.0207962943241	-0.655928955646232
414	41.4	-0.0207962943241	-0.655928955646232
415	41.5	-0.0207962943241	-0.654640654101968
416	41.6	-0.022084595868364	-0.654640654101968
417	41.7	-0.0207962943241	-0.653352352557704
418	41.8	-0.022084595868364	-0.65206405101344
419	41.9	-0.022084595868364	-0.65206405101344
420	42	-0.022084595868364	-0.65206405101344
421	42.1	-0.0207962943241	-0.650775749469176
422	42.2	-0.0207962943241	-0.650775749469176
423	42.3	-0.022084595868364	-0.650775749469176
424	42.4	-0.0207962943241	-0.649487447924912
425	42.5	-0.022084595868364	-0.649487447924912
426	42.6	-0.0207962943241	-0.649487447924912
427	42.7	-0.0195079927798361	-0.648199146380648
428	42.8	-0.0207962943241	-0.648199146380648
429	42.9	-0.0207962943241	-0.646910844836384
430	43	-0.0207962943241	-0.646910844836384
431	43.1	-0.0207962943241	-0.646910844836384
432	43.2	-0.0207962943241	-0.64562254329212
