Number of measurement points: 2068
Sample Rate (Hz): 10
Low limit Ch0 (V): -10
Upper limit Ch0 (V): 10
Low limit Ch1 (V): -10
Upper limit Ch1 (V): 10

Index	Time[s]	Ch0[V]	Ch1[V]
0	0	-0.0658868483733386	-0.573477656813338
1	0.1	-0.0233728974126279	-0.573477656813338
2	0.2	-0.0233728974126279	-0.574765958357602
3	0.3	-0.0233728974126279	-0.574765958357602
4	0.4	-0.0246611989568919	-0.573477656813338
5	0.5	-0.0246611989568919	-0.573477656813338
6	0.6	-0.0233728974126279	-0.573477656813338
7	0.7	-0.022084595868364	-0.574765958357602
8	0.8	-0.0246611989568919	-0.573477656813338
9	0.9	-0.0246611989568919	-0.573477656813338
10	1	-0.022084595868364	-0.574765958357602
11	1.1	-0.0233728974126279	-0.574765958357602
12	1.2	-0.0233728974126279	-0.573477656813338
13	1.3	-0.0233728974126279	-0.574765958357602
14	1.4	-0.022084595868364	-0.574765958357602
15	1.5	-0.022084595868364	-0.574765958357602
16	1.6	-0.0233728974126279	-0.574765958357602
17	1.7	-0.0233728974126279	-0.573477656813338
18	1.8	-0.0246611989568919	-0.574765958357602
19	1.9	-0.0233728974126279	-0.572189355269074
20	2	-0.0233728974126279	-0.572189355269074
21	2.1	-0.0233728974126279	-0.572189355269074
22	2.2	-0.0233728974126279	-0.57090105372481
23	2.3	-0.022084595868364	-0.57090105372481
24	2.4	-0.0233728974126279	-0.569612752180547
25	2.5	-0.022084595868364	-0.569612752180547
26	2.6	-0.022084595868364	-0.568324450636283
27	2.7	-0.022084595868364	-0.568324450636283
28	2.8	-0.022084595868364	-0.568324450636283
29	2.9	-0.022084595868364	-0.567036149092019
30	3	-0.0207962943241	-0.567036149092019
31	3.1	-0.0233728974126279	-0.567036149092019
32	3.2	-0.0233728974126279	-0.567036149092019
33	3.3	-0.022084595868364	-0.565747847547755
34	3.4	-0.022084595868364	-0.564459546003491
35	3.5	-0.022084595868364	-0.564459546003491
36	3.6	-0.022084595868364	-0.564459546003491
37	3.7	-0.0207962943241	-0.563171244459227
38	3.8	-0.0233728974126279	-0.561882942914963
39	3.9	-0.0233728974126279	-0.561882942914963
40	4	-0.022084595868364	-0.560594641370699
41	4.1	-0.022084595868364	-0.559306339826435
42	4.2	-0.022084595868364	-0.558018038282171
43	4.3	-0.022084595868364	-0.559306339826435
44	4.4	-0.0207962943241	-0.558018038282171
45	4.5	-0.022084595868364	-0.556729736737907
46	4.6	-0.022084595868364	-0.555441435193643
47	4.7	-0.022084595868364	-0.555441435193643
48	4.8	-0.0207962943241	-0.554153133649379
49	4.9	-0.0207962943241	-0.552864832105115
50	5	-0.0207962943241	-0.551576530560851
51	5.1	-0.022084595868364	-0.550288229016587
52	5.2	-0.0233728974126279	-0.547711625928059
53	5.3	-0.0207962943241	-0.547711625928059
54	5.4	-0.0207962943241	-0.547711625928059
55	5.5	-0.022084595868364	-0.546423324383795
56	5.6	-0.022084595868364	-0.545135022839531
57	5.7	-0.0233728974126279	-0.543846721295267
58	5.8	-0.0207962943241	-0.542558419751003
59	5.9	-0.022084595868364	-0.541270118206739
60	6	-0.022084595868364	-0.541270118206739
61	6.1	-0.022084595868364	-0.539981816662475
62	6.2	-0.0207962943241	-0.539981816662475
63	6.3	-0.0207962943241	-0.538693515118212
64	6.4	-0.022084595868364	-0.538693515118212
65	6.5	-0.022084595868364	-0.537405213573948
66	6.6	-0.022084595868364	-0.536116912029684
67	6.7	-0.022084595868364	-0.536116912029684
68	6.8	-0.0207962943241	-0.536116912029684
69	6.9	-0.022084595868364	-0.53482861048542
70	7	-0.022084595868364	-0.533540308941156
71	7.1	-0.022084595868364	-0.532252007396892
72	7.2	-0.022084595868364	-0.530963705852628
73	7.3	-0.022084595868364	-0.529675404308364
74	7.4	-0.0207962943241	-0.5283871027641
75	7.5	-0.0207962943241	-0.5283871027641
76	7.6	-0.022084595868364	-0.527098801219836
77	7.7	-0.0195079927798361	-0.527098801219836
78	7.8	-0.0207962943241	-0.525810499675572
79	7.9	-0.022084595868364	-0.524522198131308
80	8	-0.0207962943241	-0.523233896587044
81	8.1	-0.022084595868364	-0.52194559504278
82	8.2	-0.0207962943241	-0.52194559504278
83	8.3	-0.022084595868364	-0.520657293498516
84	8.4	-0.022084595868364	-0.519368991954252
85	8.5	-0.022084595868364	-0.518080690409988
86	8.6	-0.0207962943241	-0.516792388865724
87	8.7	-0.0207962943241	-0.51550408732146
88	8.8	-0.0207962943241	-0.51550408732146
89	8.9	-0.022084595868364	-0.514215785777196
90	9	-0.022084595868364	-0.512927484232932
91	9.1	-0.022084595868364	-0.511639182688668
92	9.2	-0.022084595868364	-0.510350881144404
93	9.3	-0.0207962943241	-0.50906257960014
94	9.4	-0.022084595868364	-0.507774278055876
95	9.5	-0.022084595868364	-0.507774278055876
96	9.6	-0.0207962943241	-0.506485976511613
97	9.7	-0.0207962943241	-0.505197674967349
98	9.8	-0.0207962943241	-0.503909373423085
99	9.9	-0.022084595868364	-0.503909373423085
100	10	-0.022084595868364	-0.502621071878821
101	10.1	-0.0207962943241	-0.501332770334557
102	10.2	-0.022084595868364	-0.501332770334557
103	10.3	-0.022084595868364	-0.501332770334557
104	10.4	-0.022084595868364	-0.500044468790293
105	10.5	-0.022084595868364	-0.498756167246029
106	10.6	-0.0233728974126279	-0.497467865701765
107	10.7	-0.0207962943241	-0.497467865701765
108	10.8	-0.0207962943241	-0.496179564157501
109	10.9	-0.022084595868364	-0.494891262613237
110	11	-0.022084595868364	-0.493602961068973
111	11.1	-0.0233728974126279	-0.492314659524709
112	11.2	-0.022084595868364	-0.491026357980445
113	11.3	-0.022084595868364	-0.489738056436181
114	11.4	-0.022084595868364	-0.488449754891917
115	11.5	-0.0233728974126279	-0.487161453347653
116	11.6	-0.022084595868364	-0.485873151803389
117	11.7	-0.0233728974126279	-0.484584850259125
118	11.8	-0.022084595868364	-0.483296548714861
119	11.9	-0.022084595868364	-0.483296548714861
120	12	-0.022084595868364	-0.482008247170597
121	12.1	-0.022084595868364	-0.482008247170597
122	12.2	-0.022084595868364	-0.480719945626333
123	12.3	-0.0207962943241	-0.479431644082069
124	12.4	-0.022084595868364	-0.479431644082069
125	12.5	-0.0207962943241	-0.478143342537805
126	12.6	-0.0233728974126279	-0.476855040993541
127	12.7	-0.022084595868364	-0.475566739449278
128	12.8	-0.0207962943241	-0.475566739449278
129	12.9	-0.0207962943241	-0.47299013636075
130	13	-0.022084595868364	-0.47299013636075
131	13.1	-0.022084595868364	-0.47299013636075
132	13.2	-0.0207962943241	-0.470413533272222
133	13.3	-0.0207962943241	-0.469125231727958
134	13.4	-0.022084595868364	-0.467836930183694
135	13.5	-0.022084595868364	-0.467836930183694
136	13.6	-0.022084595868364	-0.46654862863943
137	13.7	-0.0233728974126279	-0.46654862863943
138	13.8	-0.0207962943241	-0.465260327095166
139	13.9	-0.022084595868364	-0.463972025550902
140	14	-0.022084595868364	-0.463972025550902
141	14.1	-0.022084595868364	-0.462683724006638
142	14.2	-0.022084595868364	-0.462683724006638
143	14.3	-0.0233728974126279	-0.461395422462374
144	14.4	-0.0233728974126279	-0.46010712091811
145	14.5	-0.0233728974126279	-0.46010712091811
146	14.6	-0.0207962943241	-0.458818819373846
147	14.7	-0.022084595868364	-0.457530517829582
148	14.8	-0.0233728974126279	-0.457530517829582
149	14.9	-0.022084595868364	-0.456242216285318
150	15	-0.022084595868364	-0.454953914741054
151	15.1	-0.0233728974126279	-0.45366561319679
152	15.2	-0.0233728974126279	-0.45366561319679
153	15.3	-0.022084595868364	-0.45366561319679
154	15.4	-0.022084595868364	-0.452377311652526
155	15.5	-0.022084595868364	-0.452377311652526
156	15.6	-0.0233728974126279	-0.451089010108262
157	15.7	-0.0207962943241	-0.448512407019734
158	15.8	-0.022084595868364	-0.44722410547547
159	15.9	-0.0233728974126279	-0.44722410547547
160	16	-0.0233728974126279	-0.44722410547547
161	16.1	-0.0233728974126279	-0.445935803931206
162	16.2	-0.022084595868364	-0.444647502386943
163	16.3	-0.022084595868364	-0.443359200842679
164	16.4	-0.022084595868364	-0.443359200842679
165	16.5	-0.0233728974126279	-0.442070899298415
166	16.6	-0.0233728974126279	-0.440782597754151
167	16.7	-0.0233728974126279	-0.439494296209887
168	16.8	-0.0233728974126279	-0.438205994665623
169	16.9	-0.022084595868364	-0.438205994665623
170	17	-0.022084595868364	-0.436917693121359
171	17.1	-0.022084595868364	-0.435629391577095
172	17.2	-0.0233728974126279	-0.434341090032831
173	17.3	-0.022084595868364	-0.433052788488567
174	17.4	-0.022084595868364	-0.431764486944303
175	17.5	-0.022084595868364	-0.430476185400039
176	17.6	-0.0233728974126279	-0.429187883855775
177	17.7	-0.022084595868364	-0.427899582311511
178	17.8	-0.022084595868364	-0.426611280767247
179	17.9	-0.022084595868364	-0.425322979222983
180	18	-0.022084595868364	-0.424034677678719
181	18.1	-0.022084595868364	-0.422746376134455
182	18.2	-0.0246611989568919	-0.421458074590191
183	18.3	-0.0233728974126279	-0.420169773045927
184	18.4	-0.0233728974126279	-0.418881471501663
185	18.5	-0.0233728974126279	-0.417593169957399
186	18.6	-0.022084595868364	-0.417593169957399
187	18.7	-0.022084595868364	-0.416304868413135
188	18.8	-0.0233728974126279	-0.415016566868871
189	18.9	-0.022084595868364	-0.415016566868871
190	19	-0.022084595868364	-0.415016566868871
191	19.1	-0.0233728974126279	-0.413728265324607
192	19.2	-0.0233728974126279	-0.413728265324607
193	19.3	-0.0233728974126279	-0.413728265324607
194	19.4	-0.0233728974126279	-0.412439963780344
195	19.5	-0.022084595868364	-0.41115166223608
196	19.6	-0.0233728974126279	-0.41115166223608
197	19.7	-0.0233728974126279	-0.409863360691816
198	19.8	-0.0233728974126279	-0.408575059147552
199	19.9	-0.022084595868364	-0.408575059147552
200	20	-0.0233728974126279	-0.408575059147552
201	20.1	-0.0233728974126279	-0.407286757603288
202	20.2	-0.0233728974126279	-0.407286757603288
203	20.3	-0.0233728974126279	-0.405998456059024
204	20.4	-0.022084595868364	-0.405998456059024
205	20.5	-0.0233728974126279	-0.40471015451476
206	20.6	-0.0233728974126279	-0.403421852970496
207	20.7	-0.0246611989568919	-0.400845249881968
208	20.8	-0.0246611989568919	-0.399556948337704
209	20.9	-0.0259495005011559	-0.399556948337704
210	21	-0.0259495005011559	-0.396980345249176
211	21.1	-0.0246611989568919	-0.396980345249176
212	21.2	-0.0246611989568919	-0.395692043704912
213	21.3	-0.0246611989568919	-0.394403742160648
214	21.4	-0.0233728974126279	-0.393115440616384
215	21.5	-0.0246611989568919	-0.39182713907212
216	21.6	-0.0246611989568919	-0.390538837527856
217	21.7	-0.0246611989568919	-0.389250535983592
218	21.8	-0.0233728974126279	-0.387962234439328
219	21.9	-0.0233728974126279	-0.386673932895064
220	22	-0.0233728974126279	-0.3853856313508
221	22.1	-0.0233728974126279	-0.384097329806536
222	22.2	-0.022084595868364	-0.384097329806536
223	22.3	-0.022084595868364	-0.381520726718009
224	22.4	-0.0233728974126279	-0.381520726718009
225	22.5	-0.0233728974126279	-0.380232425173745
226	22.6	-0.0259495005011559	-0.380232425173745
227	22.7	-0.0246611989568919	-0.378944123629481
228	22.8	-0.0259495005011559	-0.378944123629481
229	22.9	-0.0246611989568919	-0.377655822085217
230	23	-0.0246611989568919	-0.377655822085217
231	23.1	-0.0259495005011559	-0.376367520540953
232	23.2	-0.0233728974126279	-0.376367520540953
233	23.3	-0.0246611989568919	-0.375079218996689
234	23.4	-0.0246611989568919	-0.373790917452425
235	23.5	-0.0246611989568919	-0.372502615908161
236	23.6	-0.0246611989568919	-0.372502615908161
237	23.7	-0.022084595868364	-0.369926012819633
238	23.8	-0.0233728974126279	-0.368637711275369
239	23.9	-0.0233728974126279	-0.367349409731105
240	24	-0.0233728974126279	-0.367349409731105
241	24.1	-0.0233728974126279	-0.366061108186841
242	24.2	-0.0233728974126279	-0.364772806642577
243	24.3	-0.022084595868364	-0.364772806642577
244	24.4	-0.022084595868364	-0.363484505098313
245	24.5	-0.0233728974126279	-0.362196203554049
246	24.6	-0.0233728974126279	-0.360907902009785
247	24.7	-0.0246611989568919	-0.360907902009785
248	24.8	-0.0233728974126279	-0.359619600465521
249	24.9	-0.0246611989568919	-0.359619600465521
250	25	-0.0246611989568919	-0.358331298921257
251	25.1	-0.0246611989568919	-0.357042997376993
252	25.2	-0.0246611989568919	-0.357042997376993
253	25.3	-0.022084595868364	-0.355754695832729
254	25.4	-0.0233728974126279	-0.355754695832729
255	25.5	-0.0233728974126279	-0.354466394288465
256	25.6	-0.0233728974126279	-0.353178092744201
257	25.7	-0.0246611989568919	-0.351889791199937
258	25.8	-0.0246611989568919	-0.351889791199937
259	25.9	-0.0233728974126279	-0.350601489655674
260	26	-0.0233728974126279	-0.350601489655674
261	26.1	-0.0233728974126279	-0.34931318811141
262	26.2	-0.0233728974126279	-0.348024886567146
263	26.3	-0.0233728974126279	-0.346736585022882
264	26.4	-0.0233728974126279	-0.345448283478618
265	26.5	-0.0233728974126279	-0.344159981934354
266	26.6	-0.0233728974126279	-0.34287168039009
267	26.7	-0.0233728974126279	-0.34287168039009
268	26.8	-0.0246611989568919	-0.341583378845826
269	26.9	-0.0233728974126279	-0.341583378845826
270	27	-0.0233728974126279	-0.340295077301562
271	27.1	-0.0233728974126279	-0.339006775757298
272	27.2	-0.0233728974126279	-0.339006775757298
273	27.3	-0.0246611989568919	-0.33643017266877
274	27.4	-0.0246611989568919	-0.33643017266877
275	27.5	-0.0233728974126279	-0.33643017266877
276	27.6	-0.0233728974126279	-0.335141871124506
277	27.7	-0.0246611989568919	-0.335141871124506
278	27.8	-0.0233728974126279	-0.333853569580242
279	27.9	-0.0233728974126279	-0.332565268035978
280	28	-0.0233728974126279	-0.332565268035978
281	28.1	-0.0246611989568919	-0.332565268035978
282	28.2	-0.0246611989568919	-0.331276966491714
283	28.3	-0.022084595868364	-0.331276966491714
284	28.4	-0.0233728974126279	-0.32998866494745
285	28.5	-0.0233728974126279	-0.32998866494745
286	28.6	-0.0246611989568919	-0.328700363403186
287	28.7	-0.0233728974126279	-0.328700363403186
288	28.8	-0.022084595868364	-0.328700363403186
289	28.9	-0.0233728974126279	-0.326123760314658
290	29	-0.0246611989568919	-0.324835458770394
291	29.1	-0.0259495005011559	-0.324835458770394
292	29.2	-0.0272378020454198	-0.324835458770394
293	29.3	-0.0272378020454198	-0.324835458770394
294	29.4	-0.0285261035896838	-0.32354715722613
295	29.5	-0.0285261035896838	-0.322258855681866
296	29.6	-0.0285261035896838	-0.320970554137602
297	29.7	-0.0285261035896838	-0.320970554137602
298	29.8	-0.0285261035896838	-0.320970554137602
299	29.9	-0.0272378020454198	-0.320970554137602
300	30	-0.0272378020454198	-0.319682252593338
301	30.1	-0.0272378020454198	-0.319682252593338
302	30.2	-0.0272378020454198	-0.318393951049075
303	30.3	-0.0259495005011559	-0.318393951049075
304	30.4	-0.0259495005011559	-0.317105649504811
305	30.5	-0.0259495005011559	-0.318393951049075
306	30.6	-0.0259495005011559	-0.315817347960547
307	30.7	-0.0259495005011559	-0.315817347960547
308	30.8	-0.0246611989568919	-0.315817347960547
309	30.9	-0.0259495005011559	-0.314529046416283
310	31	-0.0246611989568919	-0.313240744872019
311	31.1	-0.0233728974126279	-0.313240744872019
312	31.2	-0.0246611989568919	-0.313240744872019
313	31.3	-0.0259495005011559	-0.311952443327755
314	31.4	-0.0233728974126279	-0.310664141783491
315	31.5	-0.0233728974126279	-0.310664141783491
316	31.6	-0.0246611989568919	-0.309375840239227
317	31.7	-0.0246611989568919	-0.309375840239227
318	31.8	-0.0233728974126279	-0.309375840239227
319	31.9	-0.0233728974126279	-0.308087538694963
320	32	-0.0246611989568919	-0.308087538694963
321	32.1	-0.0272378020454198	-0.306799237150699
322	32.2	-0.0298144051339477	-0.305510935606435
323	32.3	-0.0285261035896838	-0.304222634062171
324	32.4	-0.0311027066782117	-0.304222634062171
325	32.5	-0.0298144051339477	-0.304222634062171
326	32.6	-0.0323910082224756	-0.302934332517907
327	32.7	-0.0311027066782117	-0.301646030973643
328	32.8	-0.0311027066782117	-0.301646030973643
329	32.9	-0.0298144051339477	-0.301646030973643
330	33	-0.0285261035896838	-0.300357729429379
331	33.1	-0.0272378020454198	-0.300357729429379
332	33.2	-0.0272378020454198	-0.299069427885115
333	33.3	-0.0272378020454198	-0.299069427885115
334	33.4	-0.0272378020454198	-0.299069427885115
335	33.5	-0.0272378020454198	-0.297781126340851
336	33.6	-0.0285261035896838	-0.296492824796587
337	33.7	-0.0272378020454198	-0.296492824796587
338	33.8	-0.0259495005011559	-0.295204523252323
339	33.9	-0.0272378020454198	-0.295204523252323
340	34	-0.0259495005011559	-0.295204523252323
341	34.1	-0.0246611989568919	-0.293916221708059
342	34.2	-0.0233728974126279	-0.293916221708059
343	34.3	-0.0233728974126279	-0.292627920163795
344	34.4	-0.0246611989568919	-0.291339618619531
345	34.5	-0.0259495005011559	-0.290051317075267
346	34.6	-0.0246611989568919	-0.290051317075267
347	34.7	-0.0246611989568919	-0.288763015531003
348	34.8	-0.0259495005011559	-0.28747471398674
349	34.9	-0.0259495005011559	-0.28747471398674
350	35	-0.0259495005011559	-0.286186412442476
351	35.1	-0.0272378020454198	-0.286186412442476
352	35.2	-0.0272378020454198	-0.284898110898212
353	35.3	-0.0272378020454198	-0.284898110898212
354	35.4	-0.0285261035896838	-0.283609809353948
355	35.5	-0.0272378020454198	-0.282321507809684
356	35.6	-0.0272378020454198	-0.28103320626542
357	35.7	-0.0259495005011559	-0.279744904721156
358	35.8	-0.0259495005011559	-0.279744904721156
359	35.9	-0.0272378020454198	-0.279744904721156
360	36	-0.0246611989568919	-0.278456603176892
361	36.1	-0.0259495005011559	-0.277168301632628
362	36.2	-0.0272378020454198	-0.275880000088364
363	36.3	-0.0272378020454198	-0.275880000088364
364	36.4	-0.0272378020454198	-0.275880000088364
365	36.5	-0.0246611989568919	-0.2745916985441
366	36.6	-0.0259495005011559	-0.273303396999836
367	36.7	-0.0246611989568919	-0.272015095455572
368	36.8	-0.0259495005011559	-0.270726793911308
369	36.9	-0.0259495005011559	-0.270726793911308
370	37	-0.0259495005011559	-0.269438492367044
371	37.1	-0.0246611989568919	-0.269438492367044
372	37.2	-0.0272378020454198	-0.26815019082278
373	37.3	-0.0272378020454198	-0.266861889278516
374	37.4	-0.0259495005011559	-0.266861889278516
375	37.5	-0.0272378020454198	-0.265573587734252
376	37.6	-0.0285261035896838	-0.265573587734252
377	37.7	-0.0298144051339477	-0.264285286189988
378	37.8	-0.0298144051339477	-0.264285286189988
379	37.9	-0.0311027066782117	-0.264285286189988
380	38	-0.0311027066782117	-0.262996984645724
381	38.1	-0.0285261035896838	-0.262996984645724
382	38.2	-0.0272378020454198	-0.262996984645724
383	38.3	-0.0285261035896838	-0.262996984645724
384	38.4	-0.0285261035896838	-0.262996984645724
385	38.5	-0.0285261035896838	-0.26170868310146
386	38.6	-0.0272378020454198	-0.26170868310146
387	38.7	-0.0285261035896838	-0.26170868310146
388	38.8	-0.0285261035896838	-0.26170868310146
389	38.9	-0.0272378020454198	-0.260420381557196
390	39	-0.0272378020454198	-0.260420381557196
391	39.1	-0.0272378020454198	-0.259132080012932
392	39.2	-0.0285261035896838	-0.259132080012932
393	39.3	-0.0298144051339477	-0.259132080012932
394	39.4	-0.0311027066782117	-0.257843778468668
395	39.5	-0.0311027066782117	-0.256555476924405
396	39.6	-0.0311027066782117	-0.257843778468668
397	39.7	-0.0311027066782117	-0.256555476924405
398	39.8	-0.0311027066782117	-0.256555476924405
399	39.9	-0.0298144051339477	-0.256555476924405
400	40	-0.0298144051339477	-0.256555476924405
401	40.1	-0.0285261035896838	-0.255267175380141
402	40.2	-0.0285261035896838	-0.255267175380141
403	40.3	-0.0272378020454198	-0.255267175380141
404	40.4	-0.0272378020454198	-0.255267175380141
405	40.5	-0.0272378020454198	-0.255267175380141
406	40.6	-0.0259495005011559	-0.253978873835877
407	40.7	-0.0259495005011559	-0.253978873835877
408	40.8	-0.0259495005011559	-0.253978873835877
409	40.9	-0.0272378020454198	-0.253978873835877
410	41	-0.0285261035896838	-0.253978873835877
411	41.1	-0.0285261035896838	-0.253978873835877
412	41.2	-0.0272378020454198	-0.252690572291613
413	41.3	-0.0272378020454198	-0.252690572291613
414	41.4	-0.0272378020454198	-0.251402270747349
415	41.5	-0.0272378020454198	-0.251402270747349
416	41.6	-0.0259495005011559	-0.251402270747349
417	41.7	-0.0259495005011559	-0.250113969203085
418	41.8	-0.0259495005011559	-0.250113969203085
419	41.9	-0.0259495005011559	-0.250113969203085
420	42	-0.0259495005011559	-0.250113969203085
421	42.1	-0.0259495005011559	-0.250113969203085
422	42.2	-0.0259495005011559	-0.248825667658821
423	42.3	-0.0259495005011559	-0.248825667658821
