Number of measurement points: 2810
Sample Rate (Hz): 10
Low limit Ch0 (V): -10
Upper limit Ch0 (V): 10
Low limit Ch1 (V): -10
Upper limit Ch1 (V): 10

Index	Time[s]	Ch0[V]	Ch1[V]
0	0	-0.0581570391077548	-0.671388574177399
1	0.1	-0.0375442143995315	-0.671388574177399
2	0.2	-0.0362559128552675	-0.671388574177399
3	0.3	-0.0349676113110036	-0.671388574177399
4	0.4	-0.0349676113110036	-0.671388574177399
5	0.5	-0.0362559128552675	-0.671388574177399
6	0.6	-0.0349676113110036	-0.671388574177399
7	0.7	-0.0362559128552675	-0.671388574177399
8	0.8	-0.0362559128552675	-0.671388574177399
9	0.9	-0.0362559128552675	-0.671388574177399
10	1	-0.0349676113110036	-0.671388574177399
11	1.1	-0.0349676113110036	-0.671388574177399
12	1.2	-0.0362559128552675	-0.671388574177399
13	1.3	-0.0362559128552675	-0.671388574177399
14	1.4	-0.0349676113110036	-0.672676875721663
15	1.5	-0.0349676113110036	-0.671388574177399
16	1.6	-0.0362559128552675	-0.671388574177399
17	1.7	-0.0362559128552675	-0.671388574177399
18	1.8	-0.0349676113110036	-0.671388574177399
19	1.9	-0.0362559128552675	-0.672676875721663
20	2	-0.0362559128552675	-0.672676875721663
21	2.1	-0.0362559128552675	-0.672676875721663
22	2.2	-0.0362559128552675	-0.672676875721663
23	2.3	-0.0375442143995315	-0.673965177265927
24	2.4	-0.0362559128552675	-0.672676875721663
25	2.5	-0.0362559128552675	-0.672676875721663
26	2.6	-0.0362559128552675	-0.673965177265927
27	2.7	-0.0362559128552675	-0.673965177265927
28	2.8	-0.0362559128552675	-0.673965177265927
29	2.9	-0.0362559128552675	-0.673965177265927
30	3	-0.0362559128552675	-0.673965177265927
31	3.1	-0.0362559128552675	-0.673965177265927
32	3.2	-0.0362559128552675	-0.673965177265927
33	3.3	-0.0362559128552675	-0.673965177265927
34	3.4	-0.0362559128552675	-0.673965177265927
35	3.5	-0.0375442143995315	-0.673965177265927
36	3.6	-0.0375442143995315	-0.673965177265927
37	3.7	-0.0362559128552675	-0.673965177265927
38	3.8	-0.0362559128552675	-0.673965177265927
39	3.9	-0.0375442143995315	-0.673965177265927
40	4	-0.0362559128552675	-0.672676875721663
41	4.1	-0.0362559128552675	-0.673965177265927
42	4.2	-0.0362559128552675	-0.672676875721663
43	4.3	-0.0349676113110036	-0.673965177265927
44	4.4	-0.0336793097667396	-0.672676875721663
45	4.5	-0.0336793097667396	-0.672676875721663
46	4.6	-0.0311027066782117	-0.673965177265927
47	4.7	-0.0246611989568919	-0.672676875721663
48	4.8	-0.0259495005011559	-0.671388574177399
49	4.9	-0.0285261035896838	-0.670100272633135
50	5	-0.0349676113110036	-0.667523669544607
51	5.1	-0.0414091190323234	-0.667523669544607
52	5.2	-0.0426974205765873	-0.666235368000343
53	5.3	-0.0349676113110036	-0.663658764911816
54	5.4	-0.0259495005011559	-0.662370463367552
55	5.5	-0.0207962943241	-0.661082161823288
56	5.6	-0.022084595868364	-0.65850555873476
57	5.7	-0.0246611989568919	-0.657217257190496
58	5.8	-0.0311027066782117	-0.655928955646232
59	5.9	-0.0349676113110036	-0.653352352557704
60	6	-0.0323910082224756	-0.65206405101344
61	6.1	-0.0285261035896838	-0.650775749469176
62	6.2	-0.0233728974126279	-0.650775749469176
63	6.3	-0.0182196912355721	-0.648199146380648
64	6.4	-0.0195079927798361	-0.646910844836384
65	6.5	-0.0246611989568919	-0.64562254329212
66	6.6	-0.0259495005011559	-0.643045940203592
67	6.7	-0.0246611989568919	-0.641757638659328
68	6.8	-0.022084595868364	-0.640469337115064
69	6.9	-0.0195079927798361	-0.6391810355708
70	7	-0.0182196912355721	-0.637892734026536
71	7.1	-0.0195079927798361	-0.635316130938008
72	7.2	-0.0207962943241	-0.634027829393744
73	7.3	-0.0207962943241	-0.632739527849481
74	7.4	-0.0207962943241	-0.631451226305217
75	7.5	-0.0195079927798361	-0.630162924760953
76	7.6	-0.0182196912355721	-0.628874623216689
77	7.7	-0.0195079927798361	-0.627586321672425
78	7.8	-0.0195079927798361	-0.625009718583897
79	7.9	-0.0195079927798361	-0.623721417039633
80	8	-0.0195079927798361	-0.622433115495369
81	8.1	-0.022084595868364	-0.621144813951105
82	8.2	-0.022084595868364	-0.619856512406841
83	8.3	-0.022084595868364	-0.618568210862577
84	8.4	-0.0195079927798361	-0.617279909318313
85	8.5	-0.0195079927798361	-0.615991607774049
86	8.6	-0.0182196912355721	-0.614703306229785
87	8.7	-0.0207962943241	-0.613415004685521
88	8.8	-0.0207962943241	-0.612126703141257
89	8.9	-0.0233728974126279	-0.610838401596993
90	9	-0.0246611989568919	-0.609550100052729
91	9.1	-0.0298144051339477	-0.608261798508465
92	9.2	-0.0323910082224756	-0.606973496964201
93	9.3	-0.0323910082224756	-0.605685195419937
94	9.4	-0.0272378020454198	-0.604396893875673
95	9.5	-0.0233728974126279	-0.603108592331409
96	9.6	-0.0207962943241	-0.601820290787145
97	9.7	-0.0233728974126279	-0.600531989242882
98	9.8	-0.0272378020454198	-0.599243687698618
99	9.9	-0.0336793097667396	-0.59666708461009
100	10	-0.0375442143995315	-0.595378783065826
101	10.1	-0.0375442143995315	-0.594090481521562
102	10.2	-0.0349676113110036	-0.592802179977298
103	10.3	-0.0285261035896838	-0.59022557688877
104	10.4	-0.022084595868364	-0.59022557688877
105	10.5	-0.0207962943241	-0.587648973800242
106	10.6	-0.0259495005011559	-0.587648973800242
107	10.7	-0.0311027066782117	-0.586360672255978
108	10.8	-0.0414091190323234	-0.586360672255978
109	10.9	-0.0478506267536432	-0.585072370711714
110	11	-0.0504272298421711	-0.58378406916745
111	11.1	-0.051715531386435	-0.58378406916745
112	11.2	-0.0491389282979071	-0.582495767623186
113	11.3	-0.0439857221208513	-0.582495767623186
114	11.4	-0.0388325159437954	-0.581207466078922
115	11.5	-0.0323910082224756	-0.579919164534658
116	11.6	-0.0272378020454198	-0.579919164534658
117	11.7	-0.0233728974126279	-0.579919164534658
118	11.8	-0.0207962943241	-0.578630862990394
119	11.9	-0.0195079927798361	-0.578630862990394
120	12	-0.0207962943241	-0.57734256144613
121	12.1	-0.0195079927798361	-0.57734256144613
122	12.2	-0.0233728974126279	-0.576054259901866
123	12.3	-0.0323910082224756	-0.574765958357602
124	12.4	-0.0401208174880594	-0.573477656813338
125	12.5	-0.0452740236651152	-0.572189355269074
126	12.6	-0.0478506267536432	-0.572189355269074
127	12.7	-0.0452740236651152	-0.57090105372481
128	12.8	-0.0388325159437954	-0.569612752180547
129	12.9	-0.0285261035896838	-0.568324450636283
130	13	-0.0259495005011559	-0.567036149092019
131	13.1	-0.0233728974126279	-0.567036149092019
132	13.2	-0.0233728974126279	-0.565747847547755
133	13.3	-0.0259495005011559	-0.564459546003491
134	13.4	-0.0285261035896838	-0.564459546003491
135	13.5	-0.0323910082224756	-0.563171244459227
136	13.6	-0.0388325159437954	-0.563171244459227
137	13.7	-0.0401208174880594	-0.561882942914963
138	13.8	-0.0414091190323234	-0.560594641370699
139	13.9	-0.0388325159437954	-0.559306339826435
140	14	-0.0323910082224756	-0.559306339826435
141	14.1	-0.0311027066782117	-0.558018038282171
142	14.2	-0.0259495005011559	-0.556729736737907
143	14.3	-0.0233728974126279	-0.556729736737907
144	14.4	-0.0207962943241	-0.556729736737907
145	14.5	-0.0207962943241	-0.555441435193643
146	14.6	-0.0246611989568919	-0.554153133649379
147	14.7	-0.0311027066782117	-0.552864832105115
148	14.8	-0.0311027066782117	-0.551576530560851
149	14.9	-0.0323910082224756	-0.550288229016587
150	15	-0.0362559128552675	-0.550288229016587
151	15.1	-0.0311027066782117	-0.548999927472323
152	15.2	-0.0246611989568919	-0.547711625928059
153	15.3	-0.0207962943241	-0.546423324383795
154	15.4	-0.0195079927798361	-0.545135022839531
155	15.5	-0.0195079927798361	-0.545135022839531
156	15.6	-0.0195079927798361	-0.545135022839531
157	15.7	-0.0195079927798361	-0.543846721295267
158	15.8	-0.0195079927798361	-0.543846721295267
159	15.9	-0.0207962943241	-0.542558419751003
160	16	-0.0207962943241	-0.542558419751003
161	16.1	-0.022084595868364	-0.541270118206739
162	16.2	-0.0233728974126279	-0.541270118206739
163	16.3	-0.0233728974126279	-0.539981816662475
164	16.4	-0.0246611989568919	-0.538693515118212
165	16.5	-0.0259495005011559	-0.537405213573948
166	16.6	-0.0259495005011559	-0.537405213573948
167	16.7	-0.0233728974126279	-0.536116912029684
168	16.8	-0.022084595868364	-0.533540308941156
169	16.9	-0.0207962943241	-0.533540308941156
170	17	-0.0195079927798361	-0.532252007396892
171	17.1	-0.022084595868364	-0.532252007396892
172	17.2	-0.0233728974126279	-0.530963705852628
173	17.3	-0.0259495005011559	-0.530963705852628
174	17.4	-0.0285261035896838	-0.529675404308364
175	17.5	-0.0298144051339477	-0.5283871027641
176	17.6	-0.0323910082224756	-0.5283871027641
177	17.7	-0.0349676113110036	-0.527098801219836
178	17.8	-0.0349676113110036	-0.525810499675572
179	17.9	-0.0336793097667396	-0.524522198131308
180	18	-0.0298144051339477	-0.524522198131308
181	18.1	-0.0246611989568919	-0.524522198131308
182	18.2	-0.022084595868364	-0.523233896587044
183	18.3	-0.0207962943241	-0.523233896587044
184	18.4	-0.0195079927798361	-0.52194559504278
185	18.5	-0.0207962943241	-0.52194559504278
186	18.6	-0.0233728974126279	-0.520657293498516
187	18.7	-0.0272378020454198	-0.520657293498516
188	18.8	-0.0323910082224756	-0.519368991954252
189	18.9	-0.0388325159437954	-0.518080690409988
190	19	-0.0401208174880594	-0.516792388865724
191	19.1	-0.0414091190323234	-0.516792388865724
192	19.2	-0.0401208174880594	-0.51550408732146
193	19.3	-0.0362559128552675	-0.514215785777196
194	19.4	-0.0323910082224756	-0.514215785777196
195	19.5	-0.0272378020454198	-0.512927484232932
196	19.6	-0.0246611989568919	-0.512927484232932
197	19.7	-0.022084595868364	-0.512927484232932
198	19.8	-0.022084595868364	-0.512927484232932
199	19.9	-0.0207962943241	-0.511639182688668
200	20	-0.022084595868364	-0.511639182688668
201	20.1	-0.022084595868364	-0.512927484232932
202	20.2	-0.022084595868364	-0.510350881144404
203	20.3	-0.0233728974126279	-0.510350881144404
204	20.4	-0.0233728974126279	-0.510350881144404
205	20.5	-0.0298144051339477	-0.510350881144404
206	20.6	-0.0349676113110036	-0.50906257960014
207	20.7	-0.0362559128552675	-0.507774278055876
208	20.8	-0.0349676113110036	-0.50906257960014
209	20.9	-0.0362559128552675	-0.507774278055876
210	21	-0.0375442143995315	-0.507774278055876
211	21.1	-0.0401208174880594	-0.506485976511613
212	21.2	-0.0414091190323234	-0.506485976511613
213	21.3	-0.0375442143995315	-0.505197674967349
214	21.4	-0.0323910082224756	-0.503909373423085
215	21.5	-0.0259495005011559	-0.502621071878821
216	21.6	-0.0233728974126279	-0.502621071878821
217	21.7	-0.0207962943241	-0.502621071878821
218	21.8	-0.0207962943241	-0.501332770334557
219	21.9	-0.022084595868364	-0.501332770334557
220	22	-0.0259495005011559	-0.500044468790293
221	22.1	-0.0298144051339477	-0.498756167246029
222	22.2	-0.0336793097667396	-0.498756167246029
223	22.3	-0.0388325159437954	-0.497467865701765
224	22.4	-0.0414091190323234	-0.496179564157501
225	22.5	-0.0414091190323234	-0.494891262613237
226	22.6	-0.0388325159437954	-0.494891262613237
227	22.7	-0.0336793097667396	-0.493602961068973
228	22.8	-0.0285261035896838	-0.493602961068973
229	22.9	-0.0246611989568919	-0.492314659524709
230	23	-0.0207962943241	-0.492314659524709
231	23.1	-0.0182196912355721	-0.492314659524709
232	23.2	-0.0207962943241	-0.491026357980445
233	23.3	-0.0207962943241	-0.491026357980445
234	23.4	-0.022084595868364	-0.491026357980445
235	23.5	-0.0259495005011559	-0.489738056436181
236	23.6	-0.0246611989568919	-0.488449754891917
237	23.7	-0.0259495005011559	-0.488449754891917
238	23.8	-0.0272378020454198	-0.488449754891917
239	23.9	-0.0272378020454198	-0.487161453347653
240	24	-0.0246611989568919	-0.485873151803389
241	24.1	-0.022084595868364	-0.485873151803389
242	24.2	-0.022084595868364	-0.484584850259125
243	24.3	-0.0207962943241	-0.483296548714861
244	24.4	-0.0195079927798361	-0.483296548714861
245	24.5	-0.0182196912355721	-0.483296548714861
246	24.6	-0.0182196912355721	-0.482008247170597
247	24.7	-0.0207962943241	-0.480719945626333
248	24.8	-0.0207962943241	-0.480719945626333
249	24.9	-0.0207962943241	-0.479431644082069
250	25	-0.022084595868364	-0.478143342537805
251	25.1	-0.022084595868364	-0.476855040993541
252	25.2	-0.022084595868364	-0.476855040993541
253	25.3	-0.022084595868364	-0.475566739449278
254	25.4	-0.0207962943241	-0.475566739449278
255	25.5	-0.0207962943241	-0.474278437905014
256	25.6	-0.0195079927798361	-0.474278437905014
257	25.7	-0.0195079927798361	-0.47299013636075
258	25.8	-0.0182196912355721	-0.471701834816486
259	25.9	-0.0182196912355721	-0.470413533272222
260	26	-0.0182196912355721	-0.470413533272222
261	26.1	-0.0182196912355721	-0.469125231727958
262	26.2	-0.0207962943241	-0.467836930183694
263	26.3	-0.022084595868364	-0.46654862863943
264	26.4	-0.0233728974126279	-0.46654862863943
265	26.5	-0.0246611989568919	-0.465260327095166
266	26.6	-0.0259495005011559	-0.463972025550902
267	26.7	-0.0246611989568919	-0.463972025550902
268	26.8	-0.0233728974126279	-0.463972025550902
269	26.9	-0.0259495005011559	-0.462683724006638
270	27	-0.022084595868364	-0.461395422462374
271	27.1	-0.0195079927798361	-0.461395422462374
272	27.2	-0.0182196912355721	-0.46010712091811
273	27.3	-0.0169313896913081	-0.458818819373846
274	27.4	-0.0182196912355721	-0.458818819373846
275	27.5	-0.0207962943241	-0.457530517829582
276	27.6	-0.0207962943241	-0.457530517829582
277	27.7	-0.0233728974126279	-0.456242216285318
278	27.8	-0.0246611989568919	-0.456242216285318
279	27.9	-0.0285261035896838	-0.454953914741054
280	28	-0.0323910082224756	-0.454953914741054
281	28.1	-0.0362559128552675	-0.454953914741054
282	28.2	-0.0375442143995315	-0.45366561319679
283	28.3	-0.0362559128552675	-0.452377311652526
284	28.4	-0.0323910082224756	-0.451089010108262
285	28.5	-0.0259495005011559	-0.451089010108262
286	28.6	-0.022084595868364	-0.449800708563998
287	28.7	-0.0195079927798361	-0.449800708563998
288	28.8	-0.0182196912355721	-0.448512407019734
289	28.9	-0.0207962943241	-0.44722410547547
290	29	-0.0246611989568919	-0.44722410547547
291	29.1	-0.0285261035896838	-0.445935803931206
292	29.2	-0.0362559128552675	-0.445935803931206
293	29.3	-0.0439857221208513	-0.444647502386943
294	29.4	-0.0465623252093792	-0.443359200842679
295	29.5	-0.0426974205765873	-0.442070899298415
296	29.6	-0.0388325159437954	-0.440782597754151
297	29.7	-0.0336793097667396	-0.439494296209887
298	29.8	-0.0272378020454198	-0.439494296209887
299	29.9	-0.0207962943241	-0.439494296209887
300	30	-0.0195079927798361	-0.438205994665623
301	30.1	-0.0207962943241	-0.438205994665623
302	30.2	-0.0246611989568919	-0.436917693121359
303	30.3	-0.0285261035896838	-0.436917693121359
304	30.4	-0.0323910082224756	-0.435629391577095
305	30.5	-0.0375442143995315	-0.434341090032831
306	30.6	-0.0426974205765873	-0.434341090032831
307	30.7	-0.0504272298421711	-0.434341090032831
308	30.8	-0.0504272298421711	-0.433052788488567
309	30.9	-0.0465623252093792	-0.431764486944303
310	31	-0.0401208174880594	-0.430476185400039
311	31.1	-0.0311027066782117	-0.429187883855775
312	31.2	-0.0233728974126279	-0.429187883855775
313	31.3	-0.0195079927798361	-0.427899582311511
314	31.4	-0.0195079927798361	-0.426611280767247
315	31.5	-0.022084595868364	-0.426611280767247
316	31.6	-0.0233728974126279	-0.425322979222983
317	31.7	-0.0272378020454198	-0.425322979222983
318	31.8	-0.0311027066782117	-0.424034677678719
319	31.9	-0.0349676113110036	-0.424034677678719
320	32	-0.0388325159437954	-0.421458074590191
321	32.1	-0.0388325159437954	-0.421458074590191
322	32.2	-0.0323910082224756	-0.420169773045927
323	32.3	-0.0259495005011559	-0.418881471501663
324	32.4	-0.0233728974126279	-0.418881471501663
325	32.5	-0.0207962943241	-0.417593169957399
326	32.6	-0.0207962943241	-0.417593169957399
327	32.7	-0.0207962943241	-0.417593169957399
328	32.8	-0.022084595868364	-0.416304868413135
329	32.9	-0.0233728974126279	-0.415016566868871
330	33	-0.0259495005011559	-0.413728265324607
331	33.1	-0.0298144051339477	-0.413728265324607
332	33.2	-0.0323910082224756	-0.413728265324607
333	33.3	-0.0336793097667396	-0.412439963780344
334	33.4	-0.0349676113110036	-0.412439963780344
335	33.5	-0.0349676113110036	-0.412439963780344
336	33.6	-0.0349676113110036	-0.412439963780344
337	33.7	-0.0336793097667396	-0.41115166223608
338	33.8	-0.0323910082224756	-0.409863360691816
339	33.9	-0.0298144051339477	-0.409863360691816
340	34	-0.0285261035896838	-0.409863360691816
341	34.1	-0.0259495005011559	-0.408575059147552
342	34.2	-0.0233728974126279	-0.408575059147552
343	34.3	-0.0195079927798361	-0.407286757603288
344	34.4	-0.0182196912355721	-0.407286757603288
345	34.5	-0.0169313896913081	-0.407286757603288
346	34.6	-0.0182196912355721	-0.407286757603288
347	34.7	-0.0195079927798361	-0.405998456059024
348	34.8	-0.0182196912355721	-0.405998456059024
349	34.9	-0.0195079927798361	-0.40471015451476
350	35	-0.0207962943241	-0.40471015451476
351	35.1	-0.022084595868364	-0.403421852970496
352	35.2	-0.0246611989568919	-0.403421852970496
353	35.3	-0.0246611989568919	-0.403421852970496
354	35.4	-0.0246611989568919	-0.402133551426232
355	35.5	-0.0233728974126279	-0.402133551426232
356	35.6	-0.0233728974126279	-0.400845249881968
357	35.7	-0.022084595868364	-0.399556948337704
358	35.8	-0.0207962943241	-0.399556948337704
359	35.9	-0.0195079927798361	-0.39826864679344
360	36	-0.0182196912355721	-0.396980345249176
361	36.1	-0.0182196912355721	-0.396980345249176
362	36.2	-0.0182196912355721	-0.39826864679344
363	36.3	-0.0182196912355721	-0.39826864679344
364	36.4	-0.0182196912355721	-0.395692043704912
365	36.5	-0.0182196912355721	-0.395692043704912
366	36.6	-0.022084595868364	-0.395692043704912
367	36.7	-0.0233728974126279	-0.395692043704912
368	36.8	-0.0259495005011559	-0.394403742160648
369	36.9	-0.0272378020454198	-0.394403742160648
370	37	-0.0272378020454198	-0.393115440616384
371	37.1	-0.0311027066782117	-0.393115440616384
372	37.2	-0.0311027066782117	-0.393115440616384
373	37.3	-0.0298144051339477	-0.393115440616384
374	37.4	-0.0298144051339477	-0.39182713907212
375	37.5	-0.0298144051339477	-0.39182713907212
376	37.6	-0.0285261035896838	-0.39182713907212
377	37.7	-0.0272378020454198	-0.390538837527856
378	37.8	-0.0233728974126279	-0.389250535983592
379	37.9	-0.0233728974126279	-0.389250535983592
380	38	-0.022084595868364	-0.389250535983592
381	38.1	-0.0195079927798361	-0.387962234439328
382	38.2	-0.0195079927798361	-0.387962234439328
383	38.3	-0.0195079927798361	-0.387962234439328
384	38.4	-0.0182196912355721	-0.386673932895064
385	38.5	-0.0195079927798361	-0.386673932895064
386	38.6	-0.0207962943241	-0.386673932895064
387	38.7	-0.0195079927798361	-0.386673932895064
388	38.8	-0.022084595868364	-0.386673932895064
389	38.9	-0.0246611989568919	-0.3853856313508
390	39	-0.0259495005011559	-0.3853856313508
391	39.1	-0.0272378020454198	-0.384097329806536
392	39.2	-0.0311027066782117	-0.384097329806536
393	39.3	-0.0323910082224756	-0.384097329806536
394	39.4	-0.0362559128552675	-0.382809028262272
395	39.5	-0.0401208174880594	-0.382809028262272
396	39.6	-0.0414091190323234	-0.381520726718009
397	39.7	-0.0401208174880594	-0.381520726718009
398	39.8	-0.0401208174880594	-0.380232425173745
399	39.9	-0.0388325159437954	-0.380232425173745
400	40	-0.0362559128552675	-0.378944123629481
401	40.1	-0.0323910082224756	-0.378944123629481
402	40.2	-0.0336793097667396	-0.378944123629481
403	40.3	-0.0311027066782117	-0.377655822085217
404	40.4	-0.0272378020454198	-0.377655822085217
405	40.5	-0.0233728974126279	-0.376367520540953
406	40.6	-0.022084595868364	-0.375079218996689
407	40.7	-0.022084595868364	-0.375079218996689
408	40.8	-0.0233728974126279	-0.373790917452425
409	40.9	-0.0233728974126279	-0.373790917452425
410	41	-0.0246611989568919	-0.373790917452425
411	41.1	-0.0336793097667396	-0.373790917452425
412	41.2	-0.0375442143995315	-0.372502615908161
413	41.3	-0.0439857221208513	-0.372502615908161
414	41.4	-0.0491389282979071	-0.371214314363897
415	41.5	-0.053003832930699	-0.369926012819633
416	41.6	-0.051715531386435	-0.369926012819633
417	41.7	-0.0491389282979071	-0.368637711275369
418	41.8	-0.0465623252093792	-0.367349409731105
419	41.9	-0.0452740236651152	-0.367349409731105
420	42	-0.0426974205765873	-0.367349409731105
421	42.1	-0.0388325159437954	-0.366061108186841
422	42.2	-0.0311027066782117	-0.366061108186841
