Number of measurement points: 1331
Sample Rate (Hz): 10
Low limit Ch0 (V): -10
Upper limit Ch0 (V): 10
Low limit Ch1 (V): -10
Upper limit Ch1 (V): 10

Index	Time[s]	Ch0[V]	Ch1[V]
0	0	-0.0774815622717142	-0.766722888452932
1	0.1	-0.0246611989568919	-0.766722888452932
2	0.2	-0.0259495005011559	-0.765434586908668
3	0.3	-0.0246611989568919	-0.766722888452932
4	0.4	-0.0246611989568919	-0.766722888452932
5	0.5	-0.0259495005011559	-0.766722888452932
6	0.6	-0.0259495005011559	-0.765434586908668
7	0.7	-0.0246611989568919	-0.765434586908668
8	0.8	-0.0259495005011559	-0.765434586908668
9	0.9	-0.0246611989568919	-0.766722888452932
10	1	-0.0233728974126279	-0.765434586908668
11	1.1	-0.0246611989568919	-0.765434586908668
12	1.2	-0.0246611989568919	-0.765434586908668
13	1.3	-0.0246611989568919	-0.765434586908668
14	1.4	-0.0246611989568919	-0.766722888452932
15	1.5	-0.0246611989568919	-0.765434586908668
16	1.6	-0.0272378020454198	-0.765434586908668
17	1.7	-0.0246611989568919	-0.765434586908668
18	1.8	-0.0259495005011559	-0.765434586908668
19	1.9	-0.0259495005011559	-0.765434586908668
20	2	-0.0246611989568919	-0.765434586908668
21	2.1	-0.0246611989568919	-0.764146285364404
22	2.2	-0.0272378020454198	-0.764146285364404
23	2.3	-0.0246611989568919	-0.760281380731612
24	2.4	-0.0259495005011559	-0.758993079187348
25	2.5	-0.0259495005011559	-0.757704777643085
26	2.6	-0.0259495005011559	-0.756416476098821
27	2.7	-0.0272378020454198	-0.753839873010293
28	2.8	-0.0259495005011559	-0.752551571466029
29	2.9	-0.0259495005011559	-0.751263269921765
30	3	-0.0272378020454198	-0.749974968377501
31	3.1	-0.0259495005011559	-0.749974968377501
32	3.2	-0.0259495005011559	-0.747398365288973
33	3.3	-0.0259495005011559	-0.746110063744709
34	3.4	-0.0272378020454198	-0.743533460656181
35	3.5	-0.0272378020454198	-0.742245159111917
36	3.6	-0.0272378020454198	-0.740956857567653
37	3.7	-0.0272378020454198	-0.738380254479125
38	3.8	-0.0259495005011559	-0.735803651390597
39	3.9	-0.0285261035896838	-0.734515349846333
40	4	-0.0272378020454198	-0.731938746757805
41	4.1	-0.0285261035896838	-0.730650445213541
42	4.2	-0.0285261035896838	-0.729362143669277
43	4.3	-0.0272378020454198	-0.728073842125013
44	4.4	-0.0272378020454198	-0.725497239036486
45	4.5	-0.0285261035896838	-0.724208937492222
46	4.6	-0.0285261035896838	-0.724208937492222
47	4.7	-0.0272378020454198	-0.721632334403694
48	4.8	-0.0285261035896838	-0.719055731315166
49	4.9	-0.0272378020454198	-0.717767429770902
50	5	-0.0259495005011559	-0.717767429770902
51	5.1	-0.0272378020454198	-0.716479128226638
52	5.2	-0.0285261035896838	-0.715190826682374
53	5.3	-0.0272378020454198	-0.711325922049582
54	5.4	-0.0272378020454198	-0.711325922049582
55	5.5	-0.0259495005011559	-0.708749318961054
56	5.6	-0.0259495005011559	-0.70746101741679
57	5.7	-0.0272378020454198	-0.706172715872526
58	5.8	-0.0272378020454198	-0.704884414328262
59	5.9	-0.0272378020454198	-0.703596112783998
60	6	-0.0272378020454198	-0.702307811239734
61	6.1	-0.0272378020454198	-0.70101950969547
62	6.2	-0.0246611989568919	-0.698442906606942
63	6.3	-0.0259495005011559	-0.698442906606942
64	6.4	-0.0272378020454198	-0.695866303518414
65	6.5	-0.0246611989568919	-0.694578001974151
66	6.6	-0.0259495005011559	-0.693289700429887
67	6.7	-0.0272378020454198	-0.690713097341359
68	6.8	-0.0259495005011559	-0.688136494252831
69	6.9	-0.0259495005011559	-0.686848192708567
70	7	-0.0272378020454198	-0.685559891164303
71	7.1	-0.0246611989568919	-0.684271589620039
72	7.2	-0.0272378020454198	-0.681694986531511
73	7.3	-0.0272378020454198	-0.680406684987247
74	7.4	-0.0259495005011559	-0.679118383442983
75	7.5	-0.0272378020454198	-0.676541780354455
76	7.6	-0.0285261035896838	-0.676541780354455
77	7.7	-0.0285261035896838	-0.673965177265927
78	7.8	-0.0272378020454198	-0.672676875721663
79	7.9	-0.0285261035896838	-0.671388574177399
80	8	-0.0298144051339477	-0.668811971088871
81	8.1	-0.0285261035896838	-0.667523669544607
82	8.2	-0.0285261035896838	-0.666235368000343
83	8.3	-0.0285261035896838	-0.664947066456079
84	8.4	-0.0298144051339477	-0.662370463367552
85	8.5	-0.0298144051339477	-0.661082161823288
86	8.6	-0.0285261035896838	-0.65850555873476
87	8.7	-0.0311027066782117	-0.657217257190496
88	8.8	-0.0311027066782117	-0.655928955646232
89	8.9	-0.0298144051339477	-0.654640654101968
90	9	-0.0323910082224756	-0.65206405101344
91	9.1	-0.0311027066782117	-0.650775749469176
92	9.2	-0.0311027066782117	-0.648199146380648
93	9.3	-0.0311027066782117	-0.646910844836384
94	9.4	-0.0336793097667396	-0.64562254329212
95	9.5	-0.0311027066782117	-0.644334241747856
96	9.6	-0.0323910082224756	-0.641757638659328
97	9.7	-0.0349676113110036	-0.6391810355708
98	9.8	-0.0311027066782117	-0.6391810355708
99	9.9	-0.0349676113110036	-0.636604432482272
100	10	-0.0336793097667396	-0.635316130938008
101	10.1	-0.0323910082224756	-0.634027829393744
102	10.2	-0.0323910082224756	-0.632739527849481
103	10.3	-0.0336793097667396	-0.630162924760953
104	10.4	-0.0336793097667396	-0.630162924760953
105	10.5	-0.0336793097667396	-0.627586321672425
106	10.6	-0.0336793097667396	-0.627586321672425
107	10.7	-0.0349676113110036	-0.626298020128161
108	10.8	-0.0323910082224756	-0.625009718583897
109	10.9	-0.0323910082224756	-0.622433115495369
110	11	-0.0336793097667396	-0.622433115495369
111	11.1	-0.0349676113110036	-0.619856512406841
112	11.2	-0.0336793097667396	-0.619856512406841
113	11.3	-0.0323910082224756	-0.618568210862577
114	11.4	-0.0336793097667396	-0.615991607774049
115	11.5	-0.0311027066782117	-0.614703306229785
116	11.6	-0.0311027066782117	-0.613415004685521
117	11.7	-0.0323910082224756	-0.612126703141257
118	11.8	-0.0298144051339477	-0.609550100052729
119	11.9	-0.0311027066782117	-0.608261798508465
120	12	-0.0298144051339477	-0.605685195419937
121	12.1	-0.0311027066782117	-0.605685195419937
122	12.2	-0.0285261035896838	-0.604396893875673
123	12.3	-0.0298144051339477	-0.603108592331409
124	12.4	-0.0298144051339477	-0.600531989242882
125	12.5	-0.0285261035896838	-0.599243687698618
126	12.6	-0.0285261035896838	-0.59666708461009
127	12.7	-0.0285261035896838	-0.59666708461009
128	12.8	-0.0285261035896838	-0.595378783065826
129	12.9	-0.0285261035896838	-0.595378783065826
130	13	-0.0272378020454198	-0.594090481521562
131	13.1	-0.0285261035896838	-0.592802179977298
132	13.2	-0.0285261035896838	-0.591513878433034
133	13.3	-0.0272378020454198	-0.588937275344506
134	13.4	-0.0272378020454198	-0.587648973800242
135	13.5	-0.0272378020454198	-0.586360672255978
136	13.6	-0.0285261035896838	-0.585072370711714
137	13.7	-0.0272378020454198	-0.585072370711714
138	13.8	-0.0272378020454198	-0.58378406916745
139	13.9	-0.0272378020454198	-0.582495767623186
140	14	-0.0272378020454198	-0.579919164534658
141	14.1	-0.0259495005011559	-0.578630862990394
142	14.2	-0.0259495005011559	-0.57734256144613
143	14.3	-0.0272378020454198	-0.576054259901866
144	14.4	-0.0259495005011559	-0.576054259901866
145	14.5	-0.0259495005011559	-0.573477656813338
146	14.6	-0.0272378020454198	-0.573477656813338
147	14.7	-0.0272378020454198	-0.57090105372481
148	14.8	-0.0272378020454198	-0.569612752180547
149	14.9	-0.0272378020454198	-0.568324450636283
150	15	-0.0272378020454198	-0.568324450636283
151	15.1	-0.0285261035896838	-0.567036149092019
152	15.2	-0.0298144051339477	-0.564459546003491
153	15.3	-0.0285261035896838	-0.563171244459227
154	15.4	-0.0285261035896838	-0.561882942914963
155	15.5	-0.0272378020454198	-0.559306339826435
156	15.6	-0.0311027066782117	-0.558018038282171
157	15.7	-0.0285261035896838	-0.556729736737907
158	15.8	-0.0298144051339477	-0.555441435193643
159	15.9	-0.0298144051339477	-0.554153133649379
160	16	-0.0311027066782117	-0.554153133649379
161	16.1	-0.0336793097667396	-0.551576530560851
162	16.2	-0.0311027066782117	-0.550288229016587
163	16.3	-0.0311027066782117	-0.548999927472323
164	16.4	-0.0323910082224756	-0.547711625928059
165	16.5	-0.0323910082224756	-0.546423324383795
166	16.6	-0.0323910082224756	-0.545135022839531
167	16.7	-0.0311027066782117	-0.543846721295267
168	16.8	-0.0311027066782117	-0.542558419751003
169	16.9	-0.0336793097667396	-0.541270118206739
170	17	-0.0336793097667396	-0.539981816662475
171	17.1	-0.0323910082224756	-0.537405213573948
172	17.2	-0.0323910082224756	-0.537405213573948
173	17.3	-0.0336793097667396	-0.536116912029684
174	17.4	-0.0349676113110036	-0.53482861048542
175	17.5	-0.0323910082224756	-0.533540308941156
176	17.6	-0.0298144051339477	-0.530963705852628
177	17.7	-0.0336793097667396	-0.529675404308364
178	17.8	-0.0349676113110036	-0.529675404308364
179	17.9	-0.0336793097667396	-0.5283871027641
180	18	-0.0311027066782117	-0.525810499675572
181	18.1	-0.0323910082224756	-0.524522198131308
182	18.2	-0.0349676113110036	-0.524522198131308
183	18.3	-0.0349676113110036	-0.52194559504278
184	18.4	-0.0323910082224756	-0.520657293498516
185	18.5	-0.0323910082224756	-0.519368991954252
186	18.6	-0.0323910082224756	-0.518080690409988
187	18.7	-0.0323910082224756	-0.51550408732146
188	18.8	-0.0336793097667396	-0.51550408732146
189	18.9	-0.0298144051339477	-0.514215785777196
190	19	-0.0298144051339477	-0.512927484232932
191	19.1	-0.0311027066782117	-0.510350881144404
192	19.2	-0.0311027066782117	-0.510350881144404
193	19.3	-0.0311027066782117	-0.50906257960014
194	19.4	-0.0285261035896838	-0.507774278055876
195	19.5	-0.0285261035896838	-0.505197674967349
196	19.6	-0.0285261035896838	-0.505197674967349
197	19.7	-0.0298144051339477	-0.502621071878821
198	19.8	-0.0298144051339477	-0.502621071878821
199	19.9	-0.0298144051339477	-0.501332770334557
200	20	-0.0285261035896838	-0.498756167246029
201	20.1	-0.0285261035896838	-0.497467865701765
202	20.2	-0.0285261035896838	-0.496179564157501
203	20.3	-0.0285261035896838	-0.494891262613237
204	20.4	-0.0259495005011559	-0.493602961068973
205	20.5	-0.0259495005011559	-0.492314659524709
206	20.6	-0.0272378020454198	-0.492314659524709
207	20.7	-0.0259495005011559	-0.489738056436181
208	20.8	-0.0246611989568919	-0.487161453347653
209	20.9	-0.0259495005011559	-0.485873151803389
210	21	-0.0246611989568919	-0.484584850259125
211	21.1	-0.0246611989568919	-0.483296548714861
212	21.2	-0.0246611989568919	-0.482008247170597
213	21.3	-0.0246611989568919	-0.480719945626333
214	21.4	-0.0246611989568919	-0.479431644082069
215	21.5	-0.0246611989568919	-0.478143342537805
216	21.6	-0.0259495005011559	-0.476855040993541
217	21.7	-0.0246611989568919	-0.475566739449278
218	21.8	-0.0246611989568919	-0.475566739449278
219	21.9	-0.0233728974126279	-0.47299013636075
220	22	-0.0233728974126279	-0.471701834816486
221	22.1	-0.0246611989568919	-0.470413533272222
222	22.2	-0.0233728974126279	-0.467836930183694
223	22.3	-0.0233728974126279	-0.46654862863943
224	22.4	-0.0259495005011559	-0.46654862863943
225	22.5	-0.0259495005011559	-0.463972025550902
226	22.6	-0.0259495005011559	-0.462683724006638
227	22.7	-0.0272378020454198	-0.461395422462374
228	22.8	-0.0259495005011559	-0.46010712091811
229	22.9	-0.0259495005011559	-0.458818819373846
230	23	-0.0272378020454198	-0.457530517829582
231	23.1	-0.0285261035896838	-0.456242216285318
232	23.2	-0.0285261035896838	-0.45366561319679
233	23.3	-0.0298144051339477	-0.45366561319679
234	23.4	-0.0298144051339477	-0.452377311652526
235	23.5	-0.0285261035896838	-0.451089010108262
236	23.6	-0.0298144051339477	-0.449800708563998
237	23.7	-0.0336793097667396	-0.448512407019734
238	23.8	-0.0298144051339477	-0.44722410547547
239	23.9	-0.0311027066782117	-0.445935803931206
240	24	-0.0311027066782117	-0.444647502386943
241	24.1	-0.0285261035896838	-0.443359200842679
242	24.2	-0.0323910082224756	-0.442070899298415
243	24.3	-0.0362559128552675	-0.440782597754151
244	24.4	-0.0349676113110036	-0.439494296209887
245	24.5	-0.0349676113110036	-0.438205994665623
246	24.6	-0.0336793097667396	-0.438205994665623
247	24.7	-0.0336793097667396	-0.435629391577095
248	24.8	-0.0375442143995315	-0.434341090032831
249	24.9	-0.0375442143995315	-0.433052788488567
250	25	-0.0375442143995315	-0.431764486944303
251	25.1	-0.0362559128552675	-0.430476185400039
252	25.2	-0.0349676113110036	-0.429187883855775
253	25.3	-0.0362559128552675	-0.427899582311511
254	25.4	-0.0401208174880594	-0.425322979222983
255	25.5	-0.0426974205765873	-0.424034677678719
256	25.6	-0.0401208174880594	-0.422746376134455
257	25.7	-0.0388325159437954	-0.421458074590191
258	25.8	-0.0375442143995315	-0.420169773045927
259	25.9	-0.0375442143995315	-0.418881471501663
260	26	-0.0401208174880594	-0.417593169957399
261	26.1	-0.0414091190323234	-0.416304868413135
262	26.2	-0.0388325159437954	-0.415016566868871
263	26.3	-0.0375442143995315	-0.413728265324607
264	26.4	-0.0388325159437954	-0.41115166223608
265	26.5	-0.0426974205765873	-0.409863360691816
266	26.6	-0.0426974205765873	-0.407286757603288
267	26.7	-0.0426974205765873	-0.408575059147552
268	26.8	-0.0388325159437954	-0.407286757603288
269	26.9	-0.0375442143995315	-0.405998456059024
270	27	-0.0388325159437954	-0.40471015451476
271	27.1	-0.0401208174880594	-0.403421852970496
272	27.2	-0.0414091190323234	-0.402133551426232
273	27.3	-0.0401208174880594	-0.400845249881968
274	27.4	-0.0362559128552675	-0.400845249881968
275	27.5	-0.0349676113110036	-0.39826864679344
276	27.6	-0.0362559128552675	-0.39826864679344
277	27.7	-0.0375442143995315	-0.395692043704912
278	27.8	-0.0375442143995315	-0.394403742160648
279	27.9	-0.0362559128552675	-0.39182713907212
280	28	-0.0336793097667396	-0.389250535983592
281	28.1	-0.0336793097667396	-0.389250535983592
282	28.2	-0.0336793097667396	-0.386673932895064
283	28.3	-0.0349676113110036	-0.3853856313508
284	28.4	-0.0336793097667396	-0.384097329806536
285	28.5	-0.0323910082224756	-0.382809028262272
286	28.6	-0.0311027066782117	-0.381520726718009
287	28.7	-0.0323910082224756	-0.380232425173745
288	28.8	-0.0311027066782117	-0.380232425173745
289	28.9	-0.0298144051339477	-0.377655822085217
290	29	-0.0311027066782117	-0.376367520540953
291	29.1	-0.0285261035896838	-0.376367520540953
292	29.2	-0.0298144051339477	-0.375079218996689
293	29.3	-0.0298144051339477	-0.373790917452425
294	29.4	-0.0285261035896838	-0.372502615908161
295	29.5	-0.0298144051339477	-0.369926012819633
296	29.6	-0.0285261035896838	-0.369926012819633
297	29.7	-0.0285261035896838	-0.368637711275369
298	29.8	-0.0285261035896838	-0.368637711275369
299	29.9	-0.0272378020454198	-0.366061108186841
300	30	-0.0285261035896838	-0.364772806642577
301	30.1	-0.0272378020454198	-0.362196203554049
302	30.2	-0.0285261035896838	-0.362196203554049
303	30.3	-0.0298144051339477	-0.360907902009785
304	30.4	-0.0285261035896838	-0.359619600465521
305	30.5	-0.0285261035896838	-0.358331298921257
306	30.6	-0.0285261035896838	-0.358331298921257
307	30.7	-0.0298144051339477	-0.357042997376993
308	30.8	-0.0311027066782117	-0.357042997376993
309	30.9	-0.0298144051339477	-0.355754695832729
310	31	-0.0311027066782117	-0.354466394288465
311	31.1	-0.0311027066782117	-0.354466394288465
312	31.2	-0.0323910082224756	-0.351889791199937
313	31.3	-0.0323910082224756	-0.351889791199937
314	31.4	-0.0311027066782117	-0.350601489655674
315	31.5	-0.0311027066782117	-0.350601489655674
316	31.6	-0.0311027066782117	-0.350601489655674
317	31.7	-0.0336793097667396	-0.34931318811141
318	31.8	-0.0349676113110036	-0.34931318811141
319	31.9	-0.0362559128552675	-0.348024886567146
320	32	-0.0375442143995315	-0.346736585022882
321	32.1	-0.0362559128552675	-0.344159981934354
322	32.2	-0.0362559128552675	-0.34287168039009
323	32.3	-0.0401208174880594	-0.341583378845826
324	32.4	-0.0414091190323234	-0.341583378845826
325	32.5	-0.0452740236651152	-0.340295077301562
326	32.6	-0.0439857221208513	-0.337718474213034
327	32.7	-0.0439857221208513	-0.337718474213034
328	32.8	-0.0439857221208513	-0.33643017266877
329	32.9	-0.0414091190323234	-0.335141871124506
330	33	-0.0439857221208513	-0.333853569580242
331	33.1	-0.0452740236651152	-0.333853569580242
332	33.2	-0.0465623252093792	-0.332565268035978
333	33.3	-0.0491389282979071	-0.332565268035978
334	33.4	-0.0504272298421711	-0.331276966491714
335	33.5	-0.051715531386435	-0.32998866494745
336	33.6	-0.0491389282979071	-0.328700363403186
337	33.7	-0.0478506267536432	-0.327412061858922
338	33.8	-0.0478506267536432	-0.327412061858922
339	33.9	-0.0491389282979071	-0.326123760314658
340	34	-0.0555804360192269	-0.324835458770394
341	34.1	-0.0568687375634909	-0.32354715722613
342	34.2	-0.0555804360192269	-0.320970554137602
343	34.3	-0.0542921344749629	-0.320970554137602
344	34.4	-0.051715531386435	-0.319682252593338
345	34.5	-0.0504272298421711	-0.318393951049075
346	34.6	-0.053003832930699	-0.318393951049075
347	34.7	-0.0581570391077548	-0.315817347960547
348	34.8	-0.0594453406520188	-0.315817347960547
349	34.9	-0.0594453406520188	-0.314529046416283
350	35	-0.0568687375634909	-0.314529046416283
351	35.1	-0.053003832930699	-0.313240744872019
352	35.2	-0.0542921344749629	-0.313240744872019
353	35.3	-0.051715531386435	-0.310664141783491
354	35.4	-0.0504272298421711	-0.310664141783491
355	35.5	-0.053003832930699	-0.308087538694963
356	35.6	-0.0555804360192269	-0.308087538694963
357	35.7	-0.0594453406520188	-0.306799237150699
358	35.8	-0.0594453406520188	-0.305510935606435
359	35.9	-0.0542921344749629	-0.305510935606435
360	36	-0.0542921344749629	-0.304222634062171
361	36.1	-0.0491389282979071	-0.302934332517907
362	36.2	-0.0491389282979071	-0.302934332517907
363	36.3	-0.0478506267536432	-0.301646030973643
364	36.4	-0.0478506267536432	-0.300357729429379
365	36.5	-0.051715531386435	-0.300357729429379
366	36.6	-0.051715531386435	-0.299069427885115
367	36.7	-0.051715531386435	-0.299069427885115
368	36.8	-0.0491389282979071	-0.297781126340851
369	36.9	-0.0478506267536432	-0.297781126340851
370	37	-0.0452740236651152	-0.296492824796587
371	37.1	-0.0439857221208513	-0.295204523252323
372	37.2	-0.0414091190323234	-0.293916221708059
373	37.3	-0.0414091190323234	-0.292627920163795
374	37.4	-0.0426974205765873	-0.292627920163795
375	37.5	-0.0439857221208513	-0.290051317075267
376	37.6	-0.0401208174880594	-0.288763015531003
377	37.7	-0.0401208174880594	-0.28747471398674
378	37.8	-0.0375442143995315	-0.28747471398674
379	37.9	-0.0362559128552675	-0.286186412442476
380	38	-0.0362559128552675	-0.286186412442476
381	38.1	-0.0349676113110036	-0.283609809353948
382	38.2	-0.0362559128552675	-0.283609809353948
383	38.3	-0.0349676113110036	-0.282321507809684
384	38.4	-0.0336793097667396	-0.279744904721156
385	38.5	-0.0336793097667396	-0.279744904721156
386	38.6	-0.0298144051339477	-0.278456603176892
387	38.7	-0.0298144051339477	-0.277168301632628
388	38.8	-0.0298144051339477	-0.2745916985441
389	38.9	-0.0285261035896838	-0.2745916985441
390	39	-0.0298144051339477	-0.273303396999836
391	39.1	-0.0285261035896838	-0.272015095455572
392	39.2	-0.0311027066782117	-0.270726793911308
393	39.3	-0.0298144051339477	-0.270726793911308
394	39.4	-0.0298144051339477	-0.270726793911308
395	39.5	-0.0311027066782117	-0.269438492367044
396	39.6	-0.0285261035896838	-0.26815019082278
397	39.7	-0.0285261035896838	-0.26815019082278
398	39.8	-0.0298144051339477	-0.266861889278516
399	39.9	-0.0298144051339477	-0.265573587734252
400	40	-0.0311027066782117	-0.264285286189988
401	40.1	-0.0323910082224756	-0.262996984645724
402	40.2	-0.0336793097667396	-0.26170868310146
403	40.3	-0.0349676113110036	-0.260420381557196
404	40.4	-0.0349676113110036	-0.260420381557196
405	40.5	-0.0349676113110036	-0.259132080012932
406	40.6	-0.0349676113110036	-0.257843778468668
407	40.7	-0.0362559128552675	-0.256555476924405
408	40.8	-0.0388325159437954	-0.255267175380141
409	40.9	-0.0439857221208513	-0.253978873835877
410	41	-0.0465623252093792	-0.252690572291613
411	41.1	-0.0504272298421711	-0.252690572291613
412	41.2	-0.0504272298421711	-0.251402270747349
413	41.3	-0.0504272298421711	-0.250113969203085
414	41.4	-0.0491389282979071	-0.248825667658821
415	41.5	-0.0491389282979071	-0.247537366114557
416	41.6	-0.0491389282979071	-0.247537366114557
417	41.7	-0.051715531386435	-0.246249064570293
418	41.8	-0.053003832930699	-0.244960763026029
419	41.9	-0.0542921344749629	-0.244960763026029
